!CSV A.01.01
!Agilent Technologies,E8362C,MY43020457,A.09.42.15
!Agilent E8362C: A.09.42.15
!Date: Friday, March 13, 2026 15:05:59
!Source: Standard

BEGIN CH1_DATA
Freq(Hz),S11(DB),S11(DEG),S12(DB),S12(DEG),S21(DB),S21(DEG),S22(DB),S22(DEG)
10000000,-2.9585931,179.67035,-10.577142,0.058495454,-10.637404,-3.0200291,-3.1941626,179.80847
10499500,-2.9944696,-179.85316,-10.463806,-1.3042762,-10.83577,-2.6705072,-3.0197423,179.90375
10999000,-2.9416904,-179.81398,-10.541515,-1.6625021,-10.682106,-3.7234423,-3.0505164,179.99689
11498500,-3.0635958,179.68965,-10.710322,-3.1312609,-10.512199,-3.2779076,-3.0424204,179.72726
11998000,-3.0184832,179.71117,-10.484403,-2.6541262,-10.527638,-3.2248185,-3.0824542,179.76089
12497500,-2.9786289,179.81389,-10.619208,-2.4253125,-10.737288,-2.5471482,-3.085036,179.68681
12997000,-3.0023594,179.17386,-10.714939,-4.0918355,-10.797191,-2.2251434,-3.0579703,179.31802
13496500,-3.070703,179.79926,-10.612236,-1.9656044,-10.614684,-1.9825058,-3.0135357,179.29868
13996000,-3.0442507,179.33142,-10.649219,-2.6978788,-10.66236,-2.9979954,-3.0125146,179.5296
14495500,-2.98911,178.9196,-10.680948,-2.3887191,-10.618871,-2.7827284,-3.0647874,179.29773
14995000,-3.0424671,179.15181,-10.607274,-3.099654,-10.566417,-2.9385238,-3.0457909,179.50601
15494500,-3.0276685,178.84377,-10.708003,-3.0920005,-10.627647,-2.4890833,-3.0138881,179.4158
15994000,-3.0294802,179.15562,-10.631661,-2.9925466,-10.666629,-3.2509105,-3.0274026,179.07225
16493500,-2.9971941,178.95641,-10.588215,-2.4711618,-10.619592,-2.6294932,-3.0130854,179.20018
16993000,-2.9926302,178.91858,-10.697119,-2.9712479,-10.637641,-2.7402098,-3.029146,179.01389
17492500,-3.0204651,179.01338,-10.722017,-2.5476182,-10.644296,-2.6548281,-2.9882908,178.9671
17992000,-3.0189815,179.02928,-10.629977,-2.5372953,-10.651644,-2.7863145,-3.0307672,178.91864
18491500,-3.0384297,178.7991,-10.623574,-3.0050495,-10.649089,-2.7896683,-3.0106635,178.86107
18991000,-2.9901011,178.79831,-10.626633,-2.793062,-10.698049,-3.170655,-3.0021148,178.77678
19490500,-2.988739,178.86049,-10.655181,-2.8177335,-10.683883,-2.9333975,-3.0100281,178.73564
19990000,-3.0005984,178.72055,-10.629528,-2.8409903,-10.648127,-2.8664815,-2.9958262,178.72829
20489500,-3.0096533,178.73328,-10.623629,-3.1220424,-10.663205,-2.985898,-3.0120783,178.70689
20989000,-3.0205667,178.60797,-10.669448,-2.7962625,-10.636251,-2.9158974,-3.0085816,178.54834
21488500,-3.0039124,178.52374,-10.651034,-3.0873742,-10.659966,-3.0913949,-3.0229628,178.61339
21988000,-2.9820726,178.50266,-10.686875,-3.0010509,-10.671995,-3.2101743,-3.0231347,178.49596
22487500,-3.022054,178.39856,-10.616539,-3.1072302,-10.68525,-3.1674373,-3.0160835,178.47148
22987000,-3.0209887,178.44856,-10.674772,-3.3075047,-10.69703,-3.2704632,-3.0237029,178.31619
23486500,-3.0106971,178.32172,-10.690228,-3.1076822,-10.660185,-3.2475307,-3.0247214,178.29973
23986000,-2.9964714,178.16772,-10.648675,-3.3476379,-10.685195,-3.1904583,-3.0064535,178.31438
24485500,-3.0121045,178.22742,-10.685254,-3.2425568,-10.648999,-3.5501151,-3.0235317,178.19031
24985000,-3.0137904,178.05305,-10.681084,-3.3361795,-10.640084,-3.3787887,-3.037461,178.21088
25484500,-2.9943993,178.00204,-10.663794,-3.3083823,-10.661094,-3.6033947,-3.0267916,178.08716
25984000,-3.0028389,178.04756,-10.667268,-3.4034545,-10.660666,-3.5270908,-3.0144584,178.11581
26483500,-2.9935098,178.00473,-10.669244,-3.6591079,-10.664214,-3.7051907,-3.014184,177.97389
26983000,-3.0049095,178.06802,-10.714491,-3.8654435,-10.699921,-3.6037607,-3.0012734,178.1017
27482500,-3.0016251,177.85909,-10.670335,-3.6632299,-10.649794,-3.644063,-3.0063255,178.00389
27982000,-2.998878,177.85419,-10.658352,-3.7276671,-10.667338,-3.8028975,-3.0115755,177.89711
28481500,-2.9983335,177.84007,-10.664737,-3.6478794,-10.655374,-3.840843,-2.9986959,177.85745
28981000,-2.9881196,177.88374,-10.702237,-3.6584978,-10.702089,-3.8215439,-3.0097158,177.80148
29480500,-2.9884915,177.71123,-10.646915,-3.8094923,-10.665705,-3.9307401,-3.0263321,177.834
29980000,-2.9942744,177.73135,-10.667527,-3.8992608,-10.645619,-3.9257383,-3.0131917,177.68031
30479500,-3.0029628,177.61807,-10.678028,-3.8808584,-10.664207,-3.9137216,-3.0134149,177.62936
30979000,-2.9952421,177.63737,-10.666762,-3.9469304,-10.703117,-3.972645,-3.011163,177.72003
31478500,-2.9979861,177.605,-10.656426,-4.1451263,-10.697073,-4.0942512,-3.0233669,177.65892
31978000,-3.0012569,177.4579,-10.661571,-4.0701833,-10.657997,-4.0207362,-3.0185945,177.56131
32477500,-2.9926591,177.39485,-10.68899,-4.004005,-10.684101,-4.1956692,-3.0077636,177.50229
32977000,-2.9983234,177.4113,-10.673351,-4.0509052,-10.669436,-4.260694,-3.0184145,177.50302
33476500,-2.9972806,177.37032,-10.660944,-4.1046767,-10.690883,-4.2341275,-3.0204008,177.43248
33976000,-2.9999702,177.29442,-10.661425,-4.2231565,-10.689086,-4.2118006,-3.0214918,177.3707
34475500,-3.0027509,177.27185,-10.688027,-4.2052236,-10.687501,-4.2709303,-3.0210354,177.35968
34975000,-2.9953682,177.20294,-10.697575,-4.2439609,-10.687906,-4.4272108,-3.0154166,177.28354
35474500,-3.0107687,177.13408,-10.689988,-4.2290134,-10.696749,-4.4723277,-3.001775,177.17372
35974000,-2.9980202,177.05875,-10.69219,-4.5037136,-10.697186,-4.4999428,-3.0229502,177.22691
36473500,-2.9927244,177.10869,-10.686074,-4.3950605,-10.687465,-4.5160766,-2.9989529,177.16762
36973000,-2.9962187,177.07675,-10.688586,-4.4739633,-10.704647,-4.6184669,-3.0021815,177.13339
37472500,-2.9986718,177.01471,-10.658731,-4.3925848,-10.70934,-4.5276093,-2.9974923,177.09203
37972000,-3.0000091,176.8719,-10.70842,-4.4683294,-10.696316,-4.5736866,-3.0105441,176.98352
38471500,-3.0038166,176.80684,-10.679685,-4.5853863,-10.673802,-4.6173129,-3.0157747,177.0294
38971000,-3.0113227,176.79959,-10.682287,-4.6367373,-10.701974,-4.8556108,-2.9969285,176.90819
39470500,-2.9953475,176.77638,-10.688471,-4.7409883,-10.690755,-4.92802,-2.9972918,176.86681
39970000,-2.9977174,176.83156,-10.69205,-4.8165612,-10.707663,-4.7302389,-3.0114009,176.81514
40469500,-2.9958811,176.74997,-10.692549,-4.960506,-10.692614,-4.6856208,-3.0042827,176.77597
40969000,-2.984905,176.62389,-10.686577,-4.7911768,-10.698531,-4.8163605,-3.0196776,176.6841
41468500,-2.9943855,176.6076,-10.698739,-4.9621892,-10.708876,-4.9597182,-3.0120857,176.70555
41968000,-2.9947495,176.59943,-10.691794,-4.8728299,-10.699424,-5.0521722,-3.010042,176.68883
42467500,-2.9958036,176.44472,-10.697162,-4.9947643,-10.727403,-5.1993985,-3.0074947,176.61584
42967000,-2.9926169,176.49959,-10.683699,-5.0319257,-10.700899,-5.1478605,-3.0062358,176.53964
43466500,-3.0003586,176.44743,-10.698033,-5.1325769,-10.705664,-5.0411706,-3.0101073,176.61858
43966000,-2.9984775,176.36436,-10.71201,-5.1659431,-10.726488,-5.2511253,-3.0007727,176.55069
44465500,-2.9875386,176.28946,-10.705787,-5.2387056,-10.70236,-5.2956185,-3.0040371,176.40334
44965000,-2.9994457,176.1981,-10.698448,-5.3351121,-10.710942,-5.2613196,-3.0143759,176.38129
45464500,-3.0109921,176.1255,-10.646357,-5.5054102,-10.696819,-5.1126585,-3.0140579,176.31374
45964000,-2.9924531,176.18286,-10.732743,-5.0726571,-10.737597,-5.2798543,-3.0244787,176.32661
46463500,-2.9963706,176.0881,-10.733542,-5.1068759,-10.731971,-5.0823889,-3.0253708,176.22934
46963000,-3.0008671,176.1116,-10.723934,-5.4479022,-10.741864,-5.407742,-2.9859874,176.14752
47462500,-3.0224867,175.89481,-10.701694,-5.281517,-10.716786,-5.6868033,-2.9948373,175.85547
47962000,-2.9928527,176.0358,-10.662593,-5.8700538,-10.754002,-5.8819113,-3.0039623,176.22034
48461500,-2.9891572,175.76401,-10.758066,-5.5119681,-10.73518,-5.5290384,-3.0260599,176.16719
48961000,-3.0534515,175.86841,-10.744967,-5.664238,-10.710538,-6.1180978,-2.9831388,176.11459
49460500,-3.0042086,175.99315,-10.720589,-5.2934399,-10.715556,-5.7430859,-2.9920855,175.87698
49960000,-3.0064235,175.72878,-10.775455,-5.7957044,-10.719966,-5.4784822,-3.0215988,175.71915
50459500,-2.9969635,175.74063,-10.717327,-5.6927547,-10.746524,-6.0723047,-3.0116735,175.84007
50959000,-3.0114748,175.48415,-10.723448,-6.0301318,-10.781999,-5.3663268,-3.0115128,175.70355
51458500,-3.0069149,175.7188,-10.723441,-5.7417264,-10.733432,-6.0387402,-3.0207469,175.82741
51958000,-2.9895804,175.66495,-10.675871,-6.175498,-10.704874,-5.5331173,-3.0004342,175.76866
52457500,-2.9981449,175.37149,-10.685572,-5.6677003,-10.697226,-6.1146622,-2.98684,175.77954
52957000,-2.9995766,175.51196,-10.715134,-6.0142508,-10.692056,-5.792048,-2.991663,175.67955
53456500,-3.0150073,175.4558,-10.697601,-5.4646549,-10.737983,-5.9368215,-3.0407403,175.487
53956000,-2.9832106,175.5119,-10.722716,-5.7449031,-10.694042,-6.3735209,-3.0093517,175.66205
54455500,-3.0084851,175.23187,-10.808428,-6.2390528,-10.773102,-6.0493817,-3.0421951,175.60249
54955000,-2.9938505,175.22441,-10.671321,-6.1771283,-10.733193,-6.0840397,-2.9866452,175.53044
55454500,-2.9864073,175.30409,-10.754042,-6.0625849,-10.754831,-6.2398372,-3.0170376,175.34155
55954000,-3.0032704,175.18127,-10.732615,-6.1004024,-10.732507,-6.4981999,-3.0121522,175.24417
56453500,-2.9982426,175.17827,-10.728559,-6.5507092,-10.74517,-6.2912717,-3.0091066,175.40544
56953000,-3.0129907,174.99377,-10.730059,-6.325459,-10.751424,-6.5409617,-3.0085018,175.23961
57452500,-2.9727402,174.95197,-10.755568,-6.1042204,-10.722733,-6.4745698,-2.9860115,175.36894
57952000,-2.9878647,175.07568,-10.736009,-6.6039848,-10.766201,-6.1508651,-2.9746442,175.10568
58451500,-3.0013876,175.00453,-10.704563,-6.494812,-10.698956,-6.8377509,-3.0292571,175.3132
58951000,-2.9927549,174.83231,-10.723875,-6.2979956,-10.746142,-6.5871234,-3.0166798,175.16684
59450500,-2.9634182,174.81615,-10.73906,-6.7026119,-10.776523,-6.1736059,-2.9983633,175.1169
59950000,-3.0049047,174.77261,-10.717916,-6.5880103,-10.72727,-6.6660442,-3.0199244,174.95407
60449500,-2.9917428,174.93991,-10.706904,-6.5515442,-10.817662,-6.1407256,-2.9997845,174.79732
60949000,-3.0083466,174.67361,-10.733151,-6.7064185,-10.766379,-6.3628669,-3.0129569,175.04362
61448500,-3.0046356,174.69144,-10.712058,-6.4234352,-10.758794,-6.860393,-3.0057356,175.04095
61948000,-2.9890265,174.64398,-10.745323,-6.8585606,-10.784797,-6.4406095,-3.0146346,174.92345
62447500,-2.9958854,174.57602,-10.759101,-6.8139687,-10.751142,-6.8697448,-2.9873457,174.76277
62947000,-2.9911859,174.39467,-10.688227,-6.3840675,-10.719394,-6.868021,-3.0054069,175.0743
63446500,-2.9951952,174.48087,-10.786503,-6.8760161,-10.737172,-6.8260999,-3.0174122,174.74295
63946000,-2.9692347,174.45265,-10.688168,-7.0486798,-10.778447,-6.6024895,-2.9797459,174.71132
64445500,-2.9469099,174.44012,-10.757179,-6.9024935,-10.780779,-6.9732718,-2.9817626,174.61833
64945000,-2.9901426,174.2419,-10.803171,-7.0708656,-10.737623,-7.0169787,-3.0031233,174.60185
65444500,-2.9897826,174.43941,-10.695415,-7.3421392,-10.765502,-7.1003461,-3.0160425,174.83847
65944000,-2.9895356,174.28218,-10.718479,-7.2118258,-10.753776,-7.1891356,-3.0007608,174.56635
66443500,-2.989027,174.40256,-10.725207,-7.1119151,-10.717001,-7.2996812,-3.0021548,174.66318
66943000,-2.9990423,174.0853,-10.767501,-7.0688801,-10.774153,-7.1911683,-3.0386872,174.39642
67442500,-2.9891396,174.3009,-10.721117,-6.9192519,-10.80872,-7.038188,-3.0193594,174.53593
67942000,-3.0036299,174.17624,-10.72304,-7.3502808,-10.765314,-7.0496311,-2.9982033,174.22232
68441500,-3.0045183,173.91988,-10.717978,-7.1739244,-10.770124,-7.0849528,-2.9823167,174.44852
68941000,-2.9966567,174.2211,-10.749907,-7.2033925,-10.720697,-7.5749993,-3.0081825,174.26515
69440500,-2.978771,173.91231,-10.733208,-7.5004663,-10.741742,-7.4811149,-3.0102236,174.30687
69940000,-2.9771171,173.93893,-10.734919,-7.2603402,-10.79111,-7.3125968,-3.0049961,174.16364
70439500,-2.960995,173.94112,-10.774838,-7.2836046,-10.79379,-7.4107313,-3.0087504,174.22162
70939000,-2.970053,173.97827,-10.689789,-7.2674561,-10.727587,-7.7536874,-2.9999123,174.14536
71438500,-2.991704,173.80998,-10.747799,-7.5653591,-10.789535,-7.8521519,-3.0041244,173.97073
71938000,-2.9857802,173.73418,-10.781587,-7.6237898,-10.727369,-7.6267762,-2.9813781,174.24026
72437500,-2.9916613,173.65332,-10.72756,-7.7678571,-10.750831,-7.6178093,-3.0010967,173.93311
72937000,-2.9811847,173.7729,-10.770715,-7.5340095,-10.758696,-7.8024249,-3.0162182,174.03102
73436500,-2.9974763,173.69626,-10.768364,-7.5079737,-10.751299,-7.6157327,-3.0120785,174.0238
73936000,-3.0103824,173.62794,-10.747077,-7.4695077,-10.785909,-7.6553307,-3.0125322,173.75998
74435500,-3.0172577,173.61171,-10.743958,-7.8308196,-10.751154,-7.8411241,-3.0134969,173.93164
74935000,-2.9883811,173.46463,-10.716736,-7.8243184,-10.754503,-7.873632,-3.0074267,173.72131
75434500,-2.9929612,173.5708,-10.772056,-7.7127728,-10.776193,-7.7247214,-3.016161,173.60257
75934000,-2.9945385,173.54134,-10.773281,-8.1352472,-10.716825,-7.9192162,-2.9995453,173.79012
76433500,-2.9973478,173.4649,-10.739737,-7.708344,-10.780079,-7.8272185,-3.0149338,173.67967
76933000,-2.9862206,173.35004,-10.720694,-7.8442307,-10.764931,-8.0888901,-3.0119967,173.67102
77432500,-2.9969659,173.32069,-10.71326,-8.1794262,-10.737353,-7.9926381,-3.0045607,173.49071
77932000,-2.9803255,173.33279,-10.791605,-7.7853732,-10.753057,-8.0679998,-2.9969754,173.5686
78431500,-2.9972649,173.15245,-10.743976,-7.9875188,-10.817203,-8.0972538,-3.0032985,173.4399
78931000,-2.987952,173.13037,-10.691056,-8.2279749,-10.775128,-8.0528212,-2.9983909,173.49736
79430500,-2.9755125,173.14391,-10.725507,-8.4481745,-10.78384,-8.0540676,-3.0056224,173.35112
79930000,-2.9868581,173.06689,-10.745083,-8.3641605,-10.79563,-8.1909113,-2.9841747,173.46541
80429500,-2.984457,173.06731,-10.725697,-8.3593493,-10.752465,-8.4733543,-2.9962335,173.27904
80929000,-2.9980989,172.95164,-10.718002,-8.186347,-10.761095,-8.2502165,-3.0126512,173.3398
81428500,-2.9911616,172.91736,-10.769195,-8.38449,-10.802078,-8.5222988,-3.0084996,173.23004
81928000,-2.9925292,172.99924,-10.779273,-8.4933929,-10.786923,-8.2419853,-2.9929576,173.13249
82427500,-2.9877546,172.81104,-10.757946,-8.3005114,-10.766381,-8.3295364,-2.9965646,173.15759
82927000,-3.0112312,172.84129,-10.685673,-8.2968397,-10.755243,-8.4607258,-3.0151176,173.10591
83426500,-2.9828918,172.79016,-10.714314,-8.4717274,-10.734168,-8.2302723,-3.0169387,172.91978
83926000,-2.9935911,172.70476,-10.749891,-8.5701485,-10.759809,-8.4306164,-3.0182319,173.04164
84425500,-2.9831572,172.64201,-10.728224,-8.8882952,-10.778715,-8.6932945,-3.008472,172.94626
84925000,-2.9976974,172.67589,-10.729546,-8.778223,-10.745388,-8.8141146,-3.0151184,173.00464
85424500,-2.9958622,172.51846,-10.731151,-8.8066845,-10.792247,-8.8363047,-3.0240653,172.86977
85924000,-2.9778607,172.5094,-10.72803,-8.7508726,-10.748298,-8.9180346,-3.0241628,172.84689
86423500,-2.9737191,172.51706,-10.755754,-8.9362173,-10.769328,-8.7757359,-3.024246,172.7605
86923000,-2.9816785,172.42177,-10.74503,-9.1527147,-10.730777,-9.1357298,-3.0151076,172.67035
87422500,-2.9930232,172.39354,-10.728167,-8.9269466,-10.760766,-8.9018497,-3.0188556,172.6636
87922000,-2.9831092,172.25845,-10.718819,-8.8214254,-10.769663,-8.9536924,-3.0118694,172.6321
88421500,-2.9891927,172.37016,-10.746836,-8.9748383,-10.766829,-9.0692673,-3.0199513,172.67661
88921000,-2.9956095,172.43594,-10.711554,-9.1091156,-10.766597,-8.9348984,-3.0135419,172.61049
89420500,-2.9798484,172.08304,-10.735387,-9.3425226,-10.732431,-9.166791,-3.006202,172.57249
89920000,-2.9978492,172.26675,-10.714553,-9.1476288,-10.800062,-9.2533846,-3.0063066,172.39711
90419500,-3.003556,172.08218,-10.720799,-9.2740259,-10.761721,-9.3581247,-3.0176153,172.40025
90919000,-3.0114377,172.15685,-10.738447,-9.2999964,-10.770119,-9.3135386,-3.0169091,172.40985
91418500,-2.9968519,172.05516,-10.768372,-9.4276228,-10.701964,-9.4552746,-3.014864,172.40733
91918000,-2.9881079,172.04761,-10.725444,-9.4557095,-10.790193,-9.1507149,-3.0103216,172.39197
92417500,-3.0101748,171.93692,-10.763325,-9.4773808,-10.744455,-9.3327045,-3.0092683,172.28651
92917000,-2.9726191,171.93948,-10.726595,-9.4002352,-10.776465,-9.4416494,-3.0094843,172.22377
93416500,-2.987138,171.86154,-10.742292,-9.3887501,-10.721721,-9.5139074,-3.0221179,172.20844
93916000,-3.0003371,171.78656,-10.771803,-9.4382524,-10.76769,-9.6234217,-3.0043786,172.12111
94415500,-3.0021844,171.81934,-10.762223,-9.6492481,-10.74902,-9.3290319,-3.0268605,172.08305
94915000,-2.9948106,171.72313,-10.780162,-9.7076197,-10.771449,-9.7232447,-2.9970455,172.10188
95414500,-2.9854178,171.64427,-10.760132,-9.7660465,-10.778081,-9.8202477,-3.0293205,172.00014
95914000,-2.9984071,171.67668,-10.789315,-9.6050463,-10.757823,-9.6682701,-3.0101094,171.94498
96413500,-2.9908531,171.5936,-10.739964,-9.7749529,-10.751916,-9.8296766,-3.0195036,171.90903
96913000,-2.9939015,171.46407,-10.749675,-9.9952049,-10.74423,-10.126717,-2.9977996,171.86401
97412500,-2.9951379,171.45535,-10.759972,-9.722333,-10.777503,-9.9556093,-3.0166144,171.91206
97912000,-2.9960632,171.41713,-10.759624,-9.8308783,-10.746983,-9.8228073,-3.0101721,171.83017
98411500,-2.9868817,171.40529,-10.739818,-10.0531,-10.767657,-9.988266,-3.0022719,171.77321
98911000,-2.9983108,171.4453,-10.746496,-10.127311,-10.766861,-10.008493,-3.0306759,171.60756
99410500,-3.0170074,171.26671,-10.744328,-10.081153,-10.759695,-9.9189043,-2.9997382,171.60641
99910000,-2.9805412,171.32082,-10.750018,-10.018618,-10.789713,-10.019257,-3.0133181,171.62369
100409500,-2.999918,171.26591,-10.761835,-10.15111,-10.762158,-10.198546,-3.0118625,171.50319
100909000,-3.0125697,171.23901,-10.73167,-10.381283,-10.780264,-10.298409,-3.0228372,171.58838
101408500,-2.9880617,171.14493,-10.727486,-10.274446,-10.761055,-10.433606,-3.0178115,171.43288
101908000,-2.9951186,171.05937,-10.75958,-10.313136,-10.773765,-10.306494,-3.0118322,171.51434
102407500,-2.9905684,171.08195,-10.73827,-10.30072,-10.775324,-10.375382,-3.0100942,171.44223
102907000,-2.9867008,170.98889,-10.739244,-10.492168,-10.786743,-10.52667,-3.0247293,171.43085
103406500,-2.9891164,170.86884,-10.749421,-10.608539,-10.748579,-10.532969,-3.0096636,171.42403
103906000,-2.9972348,170.96387,-10.75624,-10.693945,-10.761129,-10.339747,-3.0102866,171.3438
104405500,-2.9786491,170.86212,-10.754174,-10.528425,-10.768635,-10.4392,-3.0051508,171.19772
104905000,-2.9984729,170.74947,-10.789101,-10.610988,-10.755865,-10.718459,-3.0220578,171.26466
105404500,-2.9880152,170.67027,-10.747126,-10.843865,-10.767812,-10.515412,-3.0102987,171.14403
105904000,-3.0035639,170.77072,-10.768744,-10.836705,-10.787603,-10.803481,-3.0072825,171.05994
106403500,-2.9925749,170.62541,-10.728851,-11.031221,-10.745838,-10.890877,-3.0091259,171.06458
106903000,-3.0040903,170.60536,-10.782991,-10.80364,-10.781373,-10.857176,-3.010468,171.07419
107402500,-2.9922061,170.58073,-10.746077,-10.952022,-10.758331,-10.912243,-3.0143387,170.93672
107902000,-2.990633,170.46613,-10.746424,-10.673418,-10.769388,-11.055687,-3.0093374,170.96078
108401500,-2.9953876,170.54054,-10.753196,-10.859516,-10.745914,-10.922318,-3.0117178,170.91563
108901000,-3.001543,170.47383,-10.758294,-10.981146,-10.790183,-11.044323,-3.0182652,170.81483
109400500,-3.0016711,170.44244,-10.777963,-11.314978,-10.780189,-11.114611,-3.0193417,170.79855
109900000,-2.9788067,170.35231,-10.76632,-11.283098,-10.746441,-11.182235,-3.0163383,170.758
110399500,-2.9964113,170.34488,-10.728723,-11.114788,-10.771781,-11.170943,-3.0172105,170.82317
110899000,-2.973922,170.2587,-10.781796,-11.455847,-10.758125,-11.277267,-3.0250325,170.77432
111398500,-2.9917161,170.29044,-10.750981,-11.284978,-10.780011,-11.062224,-3.0240729,170.78783
111898000,-2.9757383,170.16565,-10.771341,-11.474851,-10.74728,-11.124404,-3.0076554,170.62338
112397500,-2.9823699,170.20045,-10.794242,-11.415368,-10.771792,-11.363813,-3.0075257,170.63509
112897000,-2.9923725,170.14229,-10.777403,-11.255919,-10.770344,-11.311798,-3.0148914,170.67665
113396500,-2.9862823,170.02945,-10.770371,-11.465835,-10.797513,-11.409893,-3.0344214,170.44765
113896000,-2.9903555,169.95322,-10.766106,-11.424209,-10.785163,-11.542379,-3.0148439,170.48514
