!Agilent Technologies,E8362C,MY43020457,A.09.42.15
!Agilent E8362C: A.09.42.15
!Date: Friday, March 13, 2026 13:56:45
!Correction: S11(Full 2 Port(1,2)) 
!S21(Full 2 Port(1,2)) 
!S12(Full 2 Port(1,2)) 
!S22(Full 2 Port(1,2)) 
!S2P File: Measurements: S11, S21, S12, S22:
# Hz S  dB   R 50
10000000 -42.257229 -51.565163 -0.072433531 -0.88948286 -0.052479733 -0.080526605 -88.915611 -24.69503
10309375 -43.201187 -92.189522 0.041007895 -0.55751723 0.033480763 -0.99910152 -96.821503 43.733883
10618750 -39.601738 -76.189705 -0.038093958 -0.4843317 -0.1163986 -0.64938551 -104.32353 108.96004
10928125 -52.362156 -1.1203263 0.0010436284 -1.0377123 -0.011218654 -1.1164021 -96.760735 -72.560715
11237500 -51.182465 -124.82648 0.017042415 -0.67384869 -0.00084944954 -1.4479183 -103.70027 -175.4711
11546875 -40.154198 -43.487175 -0.038881496 -0.57952195 0.0064657633 -0.8762843 -108.72124 -56.012192
11856250 -52.818508 93.639885 -0.0043912805 -0.79302549 -0.059690945 -1.330796 -98.483551 164.86597
12165625 -45.465981 -106.04233 0.025104353 -0.74344409 -0.063369691 -0.89320058 -103.05002 126.34271
12475000 -44.398968 -69.198265 -0.0087472694 -0.84940243 -0.088465787 -1.2865099 -98.716148 90.876404
12784375 -42.900005 -107.41945 0.014772417 -0.96101338 -0.058379721 -0.55251873 -104.21343 134.67183
13093750 -42.578419 -90.595619 -0.027485559 -0.75506532 -0.073346339 -1.1586499 -97.099068 163.44977
13403125 -46.976898 -110.42213 -0.023212686 -0.89567184 -0.10503186 -1.0624274 -102.1121 72.341553
13712500 -52.814064 -91.510094 0.028988332 -1.1961064 -0.0095444927 -1.4738679 -103.66856 -14.415657
14021875 -46.72406 -63.525864 0.010962852 -0.96055949 -0.083668351 -0.98660272 -109.67119 -156.3988
14331250 -63.733086 -100.75452 0.032823525 -1.1169932 -0.055722713 -1.0417612 -98.642616 -13.830593
14640625 -44.298996 -122.33066 0.029635241 -1.0805501 -0.080856018 -1.0594194 -106.25469 129.67809
14950000 -42.448521 -97.845337 0.0047124135 -1.3490361 -0.083920278 -1.1404536 -124.01503 -75.309753
15259375 -51.553543 -114.90676 0.0019753862 -0.89340115 -0.043440688 -0.96622998 -101.65157 129.57497
15568750 -42.515419 -143.56154 0.032695554 -1.0013962 -0.071896657 -1.1330357 -104.37181 111.19342
15878125 -45.525799 -110.66558 0.029886579 -1.2444519 -0.039841246 -1.0277973 -113.75937 77.732147
16187500 -47.075542 -139.97482 -0.0031810577 -1.1178386 -0.056013029 -1.1674492 -107.3661 104.48772
16496875 -44.778732 -132.57742 0.001347729 -1.4118929 -0.024545345 -1.1005871 -116.12766 169.96713
16806250 -45.237331 -139.79245 -0.013190915 -1.1164992 -0.035114773 -1.3018366 -111.46783 -146.96733
17115625 -47.910362 -137.54529 -0.0022461368 -1.2831564 -0.053451389 -1.1901367 -103.09995 124.03267
17425000 -48.519215 -93.562279 0.0035977187 -1.260042 -0.048357099 -1.2292187 -106.95261 18.232555
17734375 -44.523941 -128.13568 -0.00083763606 -1.3454612 -0.047673471 -1.2690523 -112.02404 -53.632401
18043750 -47.087769 -131.05479 -0.0032461798 -1.3389208 -0.040810578 -1.3078756 -103.35028 167.16948
18353125 -50.936329 -100.36214 0.012416079 -1.394976 -0.0084246043 -1.3569504 -129.33893 118.49533
18662500 -49.051708 -159.11577 0.011386602 -1.2665312 -0.0083619943 -1.3635432 -116.59618 -161.30858
18971875 -46.404762 -106.71903 0.015993442 -1.2800604 -0.028491518 -1.389816 -105.31693 41.788177
19281250 -48.057228 -150.01929 0.025895273 -1.4321691 -0.025254518 -1.5218335 -107.52642 -169.7858
19590625 -46.209782 -117.65472 0.042719092 -1.3599778 -0.012539968 -1.2369443 -117.53191 -178.98099
19900000 -44.808971 -97.240623 0.023590455 -1.504582 -0.014668917 -1.2725968 -110.72781 113.65743
20209375 -48.49287 -127.34991 0.016138975 -1.4426982 -0.026839003 -1.3807226 -110.6458 148.82515
20518750 -49.480076 -92.795326 0.0068170219 -1.4838699 -0.034443978 -1.3802392 -113.33098 94.268829
20828125 -49.36525 -83.865852 -0.0004164142 -1.546235 -0.013346404 -1.3450365 -121.59612 26.751009
21137500 -46.571812 -128.93254 0.013924796 -1.4675591 -0.014540211 -1.6478173 -107.24469 135.8792
21446875 -47.201496 -113.01022 0.016573651 -1.6361767 -0.028798094 -1.4560423 -107.37137 105.90257
21756250 -48.272907 -121.45246 0.028939089 -1.6057749 -0.0039409013 -1.5503405 -111.66961 97.767342
22065625 -55.579239 -135.88705 0.010717111 -1.5729121 0.0026056424 -1.4134904 -111.17837 -144.94994
22375000 -47.918633 -97.220482 0.010084628 -1.7029134 -0.0049840389 -1.5098901 -115.93425 -173.45169
22684375 -45.059895 -126.77064 0.0021337583 -1.6733001 -0.0094531318 -1.5185449 -111.30058 87.588577
22993750 -50.395538 -102.23504 0.016912883 -1.6999038 -0.019759733 -1.8003017 -112.07321 155.91164
23303125 -45.540699 -97.706291 0.021481805 -1.6399013 0.0023959153 -1.6038442 -110.47041 134.95496
23612500 -45.145279 -95.650429 0.007337667 -1.7119757 -0.0301925 -1.5740746 -105.76826 117.61971
23921875 -47.94006 -119.32849 0.018056815 -1.7656165 -0.0012540616 -1.6211035 -117.94637 107.23048
24231250 -50.842377 -113.5591 0.011196326 -1.9033347 0.014479741 -1.7984027 -123.31367 134.47156
24540625 -46.08424 -100.79778 0.021033198 -1.796445 -0.0027487082 -1.718735 -109.6839 -104.64407
24850000 -48.178787 -105.05409 0.0089797648 -1.7736 0.0021889696 -1.6585759 -118.52287 134.82703
25159375 -49.928841 -98.320961 0.020830613 -2.0308886 -0.016394708 -1.854063 -114.28491 -174.78488
25468750 -47.190956 -85.098656 0.0031232461 -1.7886902 0.011362114 -1.8176615 -110.99405 141.69182
25778125 -47.597542 -106.53349 0.029864814 -2.0536182 -0.003168744 -1.9041225 -108.36564 120.11367
26087500 -47.558697 -96.334465 0.0060224589 -1.9139947 0.019533003 -1.854733 -110.70396 172.38663
26396875 -46.471828 -117.39869 0.0056572482 -1.9232197 0.010020774 -2.0191398 -128.08368 34.878227
26706250 -51.170086 -107.964 0.020543665 -1.9027067 -0.0015778609 -1.9971786 -100.88491 165.62068
27015625 -47.060204 -108.49883 0.015297029 -2.0530939 -0.0050503649 -1.9168613 -110.75342 -155.98116
27325000 -47.632259 -96.490181 0.009682266 -2.0360913 0.018626967 -2.0158851 -107.77348 151.03725
27634375 -49.767601 -93.462868 0.011643934 -2.1483173 0.0034644539 -1.9319149 -107.59798 106.04921
27943750 -48.773087 -88.798355 0.016253669 -2.0412581 0.012672117 -2.0834196 -107.74276 168.93085
28253125 -47.168224 -100.00706 0.0097639365 -2.0097895 0.031613626 -2.1542478 -113.27299 -150.24965
28562500 -47.174175 -100.69907 0.032531939 -2.0727932 0.024687463 -2.0956378 -111.76231 134.95869
28871875 -47.81356 -91.025085 -0.0069854441 -2.2007506 0.0057378318 -2.1721909 -118.65327 -62.856335
29181250 -46.487774 -88.586182 0.016541062 -2.198092 0.0072769658 -2.080219 -104.51496 -146.75893
29490625 -45.676834 -92.147842 0.0091114379 -2.1847708 0.00571917 -2.1379716 -106.44357 -147.43369
29800000 -44.206718 -102.587 0.0045966152 -2.1688528 0.011801311 -2.2884228 -109.32163 -18.198128
30109375 -49.178181 -100.95742 0.015502471 -2.3589246 0.010723832 -2.2325377 -107.08652 157.20255
30418750 -49.326237 -98.564072 0.012346855 -2.347477 0.025878899 -2.3618469 -103.385 165.87579
30728125 -46.518314 -103.69344 0.0070779854 -2.3151882 0.018949322 -2.411113 -106.90107 -170.2357
31037500 -47.756165 -98.20929 -0.0052792602 -2.3491473 0.019235771 -2.3798077 -110.06638 -174.68246
31346875 -47.102814 -101.34915 0.010989142 -2.3654108 0.028895682 -2.385066 -107.75341 -159.33275
31656250 -48.704178 -99.50486 0.01238555 -2.3807759 0.025326636 -2.490943 -102.11687 -160.70386
31965625 -45.646557 -110.88636 0.0015821817 -2.3475018 0.025224904 -2.5181475 -111.157 -159.27194
32275000 -47.112751 -99.874527 0.008751981 -2.4379981 0.012132568 -2.5537221 -104.89685 144.2283
32584375 -46.77961 -91.397476 0.010283999 -2.5126905 0.018080616 -2.6045785 -113.53886 -166.16133
32893750 -48.699375 -99.174797 0.010500019 -2.4852593 0.04528461 -2.6148298 -100.36697 -157.65929
33203125 -45.862621 -88.570732 0.0088185444 -2.4866433 0.023126645 -2.625905 -129.44373 125.15298
33512500 -47.153877 -97.995155 0.0053422502 -2.4692941 0.034017876 -2.7788701 -102.66457 148.32617
33821875 -45.729553 -99.250969 0.015235227 -2.5232739 0.046142224 -2.7919712 -99.818871 157.5444
34131250 -46.262321 -99.483719 0.0053256014 -2.6025002 0.027967982 -2.688246 -106.82001 165.15297
34440625 -46.995438 -108.18115 0.001818268 -2.6406915 0.027245365 -2.7909079 -105.78797 -163.68008
34750000 -46.872772 -109.4283 0.010312689 -2.6473768 0.018122345 -2.7949166 -108.24915 154.09795
35059375 -46.082695 -100.79411 0.0049370178 -2.6006775 0.02582272 -2.7697756 -102.92239 145.87791
35368750 -44.576199 -87.892227 0.013363334 -2.6302097 0.032323424 -2.8792694 -100.70441 161.00989
35678125 -47.152805 -108.03811 0.01458466 -2.702209 0.025667155 -2.961632 -101.34832 167.04242
35987500 -45.080231 -99.983261 0.015182366 -2.6883759 0.034791972 -2.9017003 -101.5015 127.89251
36296875 -44.925678 -87.972145 0.015951958 -2.787816 0.045313377 -2.98613 -105.4544 -144.18323
36606250 -45.558304 -98.630196 0.021617401 -2.7684026 0.031981777 -3.0390666 -106.11902 171.96619
36915625 -44.781643 -94.996956 0.0037508914 -2.7572746 0.038173426 -3.1280003 -104.70074 -172.20583
37225000 -46.252842 -104.83321 0.0010602529 -2.8241463 0.030561473 -3.1056464 -101.54164 -154.95988
37534375 -45.675884 -97.905731 0.0015571126 -2.8611655 0.014115573 -3.150193 -102.61533 -166.64648
37843750 -44.079937 -91.924469 0.0060878238 -2.8871799 0.029651869 -3.1764276 -104.78954 150.0166
38153125 -44.327526 -101.10168 0.0070813415 -2.9118724 0.038749103 -3.1541359 -107.21327 -171.54715
38462500 -46.237381 -97.979973 0.0054010823 -2.9750373 0.03579947 -3.2820199 -105.3772 171.86267
38771875 -45.076427 -88.032127 0.011225317 -2.9622865 0.028590783 -3.3161654 -106.46484 148.24702
39081250 -43.994381 -92.291779 0.022437885 -2.9241838 0.036693119 -3.3816385 -102.54691 -173.23251
39390625 -44.766457 -99.852722 0.013214247 -2.9985523 0.027864737 -3.4389715 -100.52665 156.48534
39700000 -44.362221 -95.071632 0.0019889178 -3.027488 0.03534364 -3.3434322 -101.28996 178.86238
40009375 -43.982578 -96.819382 0.0026184283 -3.0319808 0.020494197 -3.4511876 -102.05267 -168.59657
40318750 -43.341785 -88.689888 -0.0012613178 -2.9359219 0.026509004 -3.5170851 -100.49622 154.78801
40628125 -44.152077 -97.963814 0.011369171 -3.1281724 0.035528135 -3.5892131 -102.0545 170.86472
40937500 -43.574013 -96.378998 0.0092030726 -3.0924194 0.029721484 -3.4907706 -103.3263 168.51245
41246875 -43.696003 -102.37531 0.0068842722 -3.0800283 0.029501999 -3.587554 -100.11573 157.08904
41556250 -44.228985 -94.194946 0.012579773 -3.1780849 0.015268049 -3.6091995 -97.593872 167.88382
41865625 -43.891361 -95.317535 0.0043639243 -3.168196 0.023179619 -3.7165771 -96.876289 174.85904
42175000 -43.494808 -94.055519 0.0011447681 -3.2072244 0.018781476 -3.7253008 -97.734856 177.42311
42484375 -43.920387 -101.07333 0.0060124649 -3.1755521 0.019758839 -3.7304375 -99.708282 172.72195
42793750 -43.297939 -96.603851 0.018063044 -3.2586739 0.015278158 -3.7401314 -100.10203 171.92029
43103125 -43.610683 -98.665192 0.0048175007 -3.2281053 0.017839029 -3.7632747 -100.21336 -177.92459
43412500 -43.275269 -94.856552 0.0077006882 -3.3054767 0.022846943 -3.770678 -97.761566 -176.43944
43721875 -43.353706 -90.902992 0.0026479745 -3.3341801 0.022618631 -3.8224707 -100.2804 -170.11661
44031250 -44.027779 -92.424484 0.0024397201 -3.3384221 0.011649187 -3.8681073 -98.610527 176.81419
44340625 -43.434532 -88.885712 0.0074290349 -3.3950844 0.010843865 -3.8803244 -102.73859 162.83109
44650000 -42.871895 -98.165077 0.0012160781 -3.346796 0.014945815 -3.8670371 -101.28703 179.52737
44959375 -44.340939 -99.491829 0.0041237138 -3.4023149 0.022774253 -3.9434247 -97.938683 176.70029
45268750 -45.010571 -117.99929 0.021984391 -3.5475261 0.0050671184 -4.209559 -90.870865 152.45399
45578125 -42.607296 -115.59374 0.019950582 -3.3649528 0.052277654 -3.736228 -107.99876 174.59093
45887500 -42.637684 -86.871895 0.0093925418 -3.4449852 0.046510108 -4.2517204 -92.447823 179.15518
46196875 -41.980255 -91.755791 -0.0033967078 -3.5228546 0.018351329 -3.8731737 -99.909271 -154.92877
46506250 -45.949234 -93.205551 0.016191073 -3.5226927 0.00017347392 -4.2344379 -95.492622 -173.75777
46815625 -41.530605 -101.24757 0.0029445244 -3.3313622 0.014949073 -3.8684669 -103.75451 -141.62206
47125000 -42.908508 -83.751762 0.010578733 -3.5691998 -0.030519405 -4.1099486 -99.230972 167.31934
47434375 -42.203777 -89.436371 0.014258063 -3.6737108 0.012256795 -4.1145759 -92.283882 179.26294
47743750 -42.279408 -88.095924 0.025272109 -3.6960595 0.013666582 -4.4540672 -93.234695 -170.50786
48053125 -42.620712 -103.61875 0.0095150294 -3.570461 0.054735243 -4.2303419 -96.844536 -168.51382
48362500 -43.302505 -87.02002 -0.011701033 -3.5554841 0.043286093 -4.4479399 -91.594406 -106.08665
48671875 -40.442814 -97.104233 0.01907571 -3.7078669 0.021626156 -4.4725857 -90.07122 -173.85608
48981250 -42.844196 -74.193398 0.022093462 -3.5640473 -0.02526675 -4.536159 -98.33876 -136.12769
49290625 -45.428539 -109.08277 0.0034877455 -3.7688663 -0.01891844 -4.371439 -96.405632 156.85674
49600000 -41.522381 -95.047653 -0.00057703094 -3.5435708 -0.0058615943 -4.4821148 -98.928406 152.33727
49909375 -43.129574 -91.657501 0.017131982 -3.6376133 -0.0053656669 -4.3523536 -103.76226 -138.85878
50218750 -45.743477 -89.469452 0.0073466185 -3.7314672 -0.026901469 -4.4668374 -93.193047 -154.31261
50528125 -42.809555 -101.34666 0.022962745 -3.9387751 0.027605014 -4.2966065 -98.398178 -169.38882
50837500 -41.523151 -95.959419 0.0031167665 -3.7971549 -0.0071516177 -4.5092258 -96.669975 -169.47041
51146875 -41.686104 -93.731842 0.0038131878 -3.7101686 -0.028307771 -4.4182477 -91.117218 177.01804
51456250 -43.105312 -91.319763 0.011042291 -3.784277 0.0076814042 -4.6156855 -93.551765 -151.91438
51765625 -42.105263 -86.203636 0.00067608355 -4.0025597 0.017534232 -4.6029639 -99.188026 -128.95781
52075000 -42.494923 -88.277649 0.012307336 -3.8992286 0.0076365164 -4.7404222 -94.862053 -162.21895
52384375 -43.305164 -97.096474 0.00028927007 -3.9085813 -0.013544341 -4.6630139 -91.63192 -173.8941
52693750 -41.305374 -85.524818 -0.0049354932 -4.0617514 0.0074509415 -4.932714 -93.387398 -154.13353
53003125 -42.155098 -92.550232 -0.014731047 -4.0795956 -0.0069348225 -4.745626 -94.972992 152.03238
53312500 -41.531551 -89.987228 0.010501543 -3.8580575 -0.016594913 -4.9204674 -95.517448 -144.72073
53621875 -40.810871 -90.299019 0.018937901 -3.978925 -0.0041284072 -4.5871973 -101.19313 -179.11909
53931250 -39.748539 -90.159096 -0.0024898751 -4.0715756 -0.0080009764 -5.0048318 -96.409332 159.64793
54240625 -40.638477 -87.32637 0.019045338 -4.1442556 -0.0011083927 -4.809732 -93.733727 -165.08049
54550000 -42.099594 -86.431038 3.8771763e-005 -4.1722145 -0.014078653 -4.7552614 -92.204178 -169.8101
54859375 -44.767002 -85.223724 0.0035582734 -4.0965729 -0.028657021 -4.6975455 -92.811798 -179.58017
55168750 -40.041733 -90.570099 0.0026132131 -4.1129608 -0.018928014 -4.7010002 -95.148636 -177.03586
55478125 -39.106369 -93.894928 -0.024630317 -4.1433034 -0.018848319 -4.9487295 -91.379906 -168.28409
55787500 -40.501225 -78.741234 -0.0011401763 -4.2277575 -0.035902902 -4.8613515 -93.173447 160.1624
56096875 -40.156815 -86.720436 -0.0036982547 -4.1419759 -0.0071932748 -4.8959007 -96.472168 -171.25696
56406250 -40.580173 -100.99152 0.011011106 -4.407979 -0.033504758 -4.809989 -92.050797 149.79436
56715625 -39.171635 -83.970284 -0.005252725 -4.3576813 -0.036048569 -5.0036883 -97.764664 179.45439
57025000 -40.880894 -90.593987 -0.012479326 -4.2048993 -0.044231437 -4.864172 -89.816971 -170.14789
57334375 -40.095894 -86.39817 0.0086520836 -4.3540163 -0.026249113 -5.0133595 -95.808937 -174.0334
57643750 -40.209103 -86.027313 0.011557803 -4.3627162 -0.054852694 -4.9969134 -93.921432 152.43565
57953125 -40.970562 -97.491959 0.011542953 -4.4281054 -0.025795514 -4.9501381 -90.812462 177.71088
58262500 -39.256218 -96.996384 0.023307817 -4.324872 -0.067091592 -4.9861369 -91.864937 155.1254
58571875 -42.711548 -91.338379 -0.015843337 -4.4161239 -0.028742043 -4.9821844 -94.209824 -169.13335
58881250 -40.730274 -100.15907 -0.0076478524 -4.468184 -0.019155255 -5.0442095 -93.018135 167.69275
59190625 -39.064632 -100.42564 0.0058633396 -4.5631371 -0.022934729 -5.2112703 -92.401428 179.55003
59500000 -39.469852 -96.821327 -0.011703311 -4.4907413 -0.028048368 -4.9568105 -91.970795 157.91762
59809375 -42.130436 -89.356781 -0.015584988 -4.6018023 -0.032196514 -5.0395989 -94.293404 167.54816
60118750 -39.643738 -89.37606 0.016118543 -4.4439106 -0.030040469 -5.202558 -89.90094 -179.16647
60428125 -39.455837 -92.401871 0.014056614 -4.7099075 -0.028345093 -5.1937189 -91.616669 165.69563
60737500 -38.722416 -89.101791 -0.0026698106 -4.4798942 -0.00028651542 -5.3266754 -87.875603 -169.59689
61046875 -39.857883 -88.977348 -0.0038295873 -4.6713157 -0.024389576 -5.23809 -94.205147 164.62785
61356250 -38.725723 -93.913063 -0.022125592 -4.6578584 -0.024796408 -5.277843 -89.361008 -170.82047
61665625 -40.200077 -86.772018 0.0054697329 -4.4827085 -0.04426552 -5.2317228 -91.716499 154.61861
61975000 -41.251141 -82.161415 -0.010270439 -4.7128453 -0.027641226 -5.4023004 -90.12085 -177.01318
62284375 -39.256893 -86.775352 -0.015194071 -4.615355 -0.042906247 -5.2501516 -92.186203 153.31656
62593750 -38.564922 -94.63105 0.011939531 -4.6695914 -0.0061208815 -5.3107648 -93.351837 156.29053
62903125 -39.222797 -90.53334 0.0078135561 -4.6429806 -0.0045068618 -5.2270184 -91.2435 -176.36494
63212500 -40.369141 -82.511902 0.00049689936 -4.8176951 -0.054127447 -5.2261691 -93.859604 155.63824
63521875 -37.81778 -91.584518 -0.0060862429 -4.8000984 -0.019595565 -5.466435 -90.507042 177.60759
63831250 -39.177296 -92.773026 0.011504122 -4.7786956 -0.032676529 -5.5079818 -90.640068 169.35089
64140625 -40.11412 -94.881866 0.0049799257 -4.8410592 -0.043373108 -5.3913341 -90.294426 169.10294
64450000 -39.062447 -94.140305 -0.0043047294 -4.8279448 -0.012830906 -5.4044976 -89.212593 -173.08772
64759375 -40.17989 -85.9785 -0.0024691951 -4.9178834 -0.029654125 -5.4213753 -93.611206 166.47188
65068750 -38.858204 -96.678535 0.0026971512 -4.9393992 -0.010686073 -5.4067793 -89.66394 164.36368
65378125 -39.165028 -90.061028 0.0073881745 -4.9721251 -0.049462635 -5.5271196 -91.102554 -168.87984
65687500 -40.185585 -92.47081 -0.013079757 -4.8700109 -0.027761225 -5.4527555 -91.903191 169.99455
65996875 -38.437752 -94.651695 -0.0073294812 -4.9470601 -0.055058204 -5.4244628 -94.974113 150.98325
66306250 -38.037224 -89.856361 -0.0033765528 -4.922442 -0.019766491 -5.4942145 -90.678352 -173.0585
66615625 -38.297436 -98.006004 0.010725153 -5.1019559 -0.026024528 -5.4191651 -94.565193 -178.47023
66925000 -38.655296 -94.424019 0.0041830596 -5.1315756 -0.011517406 -5.3050218 -90.855446 -179.26816
67234375 -38.859779 -97.268578 0.00045387461 -4.9597158 -0.042454783 -5.7249041 -89.155876 150.46474
67543750 -39.794743 -91.639275 -0.005764747 -5.0976539 -0.0093060536 -5.5993462 -90.724457 164.26688
67853125 -38.80299 -96.947594 -0.022432219 -5.2637482 -0.02348236 -5.4984097 -91.96328 -179.95801
68162500 -38.398796 -100.81047 -0.0022751011 -5.0795002 -0.04123294 -5.7822695 -88.869057 168.46912
68471875 -38.081875 -95.218964 -0.0039025287 -5.1294603 -0.026168162 -5.7724419 -92.610023 176.76529
68781250 -38.552097 -89.292259 0.013555557 -5.1166973 -0.025255222 -5.7019739 -87.764793 173.94214
69090625 -39.12944 -99.042465 0.0069933613 -5.2468338 -0.051487122 -5.7493811 -90.45108 174.42027
69400000 -37.819016 -100.48702 -0.0012333181 -5.166481 -0.011581349 -5.7864132 -90.781265 -179.25024
69709375 -38.391327 -100.94398 0.0055440315 -5.1714368 -0.022654347 -5.8579655 -89.991508 169.0014
70018750 -38.319347 -95.345367 -0.010360279 -5.1643229 -0.046612721 -5.7297096 -91.654701 172.41469
70328125 -38.637337 -98.231537 -0.0082430858 -5.2598448 -0.02900378 -5.7237897 -88.753685 -176.90872
70637500 -37.881878 -94.569717 -0.01244534 -5.3428674 -0.0020877889 -5.7544599 -89.652321 -166.31995
70946875 -37.89756 -94.890587 -0.0076263007 -5.3156734 -0.032297216 -5.7203374 -92.173737 165.32639
