!Agilent Technologies,E8362C,MY43020457,A.09.42.15
!Agilent E8362C: A.09.42.15
!Date: Friday, March 13, 2026 14:46:50
!Correction: S11(Full 2 Port(1,2)) 
!S21(Full 2 Port(1,2)) 
!S12(Full 2 Port(1,2)) 
!S22(Full 2 Port(1,2)) 
!S2P File: Measurements: S11, S21, S12, S22:
# Hz S  dB   R 50
10000000 -37.563438 -93.459961 0.035965174 -0.25927925 -0.026669124 -0.61237335 -45.474785 -115.81947
10499500 -44.225941 -123.37672 -0.0082571078 -0.25848991 0.020232303 -0.74700719 -48.236809 -102.88885
10999000 -46.168049 -108.97215 -0.030648196 -0.70451993 0.017275255 -0.85397458 -43.897442 -166.5705
11498500 -45.880779 -103.72518 -0.030625137 -0.35793549 -0.013442772 -1.0843277 -40.032013 -97.897903
11998000 -47.111618 158.8728 -0.040363614 -0.99333191 -0.00052572339 -1.074244 -43.176849 -158.88977
12497500 -55.66153 -37.560783 -0.036736056 -0.89941925 0.01183835 -0.98050302 -53.479427 -88.850998
12997000 -46.522549 -26.96331 -0.0046470468 -0.9315865 -0.01585752 -1.100032 -44.852825 -114.23572
13496500 -40.056118 -114.24213 -0.015990779 -0.61936814 -0.028214309 -1.4739399 -44.405781 -130.87991
13996000 -51.878281 -84.26622 -0.048739865 -1.0222415 -0.014580511 -1.109759 -49.829178 -79.263649
14495500 -45.275074 -175.52669 0.019115811 -0.85766572 -0.025220571 -1.1658319 -46.248039 -94.060226
14995000 -47.43755 -93.992226 0.008234188 -1.1821524 -0.031201845 -1.1340193 -47.525421 -52.736206
15494500 -50.506863 -123.90982 -0.015983805 -1.0364544 0.010184152 -1.1320935 -46.445549 -17.583096
15994000 -48.489025 -110.15195 0.02569218 -1.1893414 -0.0088827349 -1.2543639 -50.836899 -63.940624
16493500 -45.571228 -120.31252 0.0077231782 -1.0298203 -0.0037295425 -1.1717398 -43.863503 -101.24061
16993000 -43.694027 -141.96411 -0.01029533 -1.403999 0.0089758458 -1.1478658 -53.902321 -85.717094
17492500 -48.327557 -90.264099 -0.0039543626 -1.3066638 -0.0024378598 -1.2157723 -50.089893 -101.34609
17992000 -47.728405 -73.83284 0.0094097201 -1.4094044 -0.00015452002 -1.2339423 -45.849964 -86.736824
18491500 -46.122269 -73.772224 -0.005517446 -1.3620259 -0.017774057 -1.13477 -48.845936 -158.61809
18991000 -45.65498 -111.56216 -0.0016448557 -1.4104409 0.010152527 -1.5098329 -48.036228 -126.03673
19490500 -43.936008 -107.57417 -0.015400663 -1.4002705 -0.01281245 -1.4898685 -51.422539 -123.62869
19990000 -46.986927 -115.88156 -0.0064987764 -1.4444176 -0.0060481648 -1.6016041 -48.118259 -115.58115
20489500 -46.181431 -93.842354 -0.0015163777 -1.3877842 0.0264147 -1.5709373 -46.322628 -103.02851
20989000 -49.1255 -94.352592 -0.013975453 -1.633075 -0.0077631613 -1.6563536 -47.109562 -105.1791
21488500 -49.058292 -97.538391 -0.012771473 -1.5666834 0.0017214457 -1.6454449 -46.362522 -91.616066
21988000 -44.968815 -113.94336 0.0079748258 -1.7262195 -0.014928584 -1.5359298 -46.257118 -87.041725
22487500 -46.857151 -111.91776 -0.013452768 -1.6883783 0.0098114861 -1.6378521 -48.861301 -83.252708
22987000 -47.203613 -80.2397 -0.0125018 -1.6470488 0.0054153805 -1.8086309 -47.852913 -101.97919
23486500 -45.348225 -91.844177 -0.0098595386 -1.7532949 -0.0098180817 -1.7904421 -45.064365 -98.222725
23986000 -46.815971 -76.108849 0.001554843 -1.6716665 -0.0023501767 -1.7522585 -47.141323 -92.527954
24485500 -49.060192 -91.345909 -0.016809037 -1.7424779 0.0082455194 -1.6767061 -48.409542 -113.06313
24985000 -45.327595 -89.436813 -0.0048709046 -1.8213419 0.0084618451 -1.7901775 -50.32975 -82.463821
25484500 -48.163345 -102.54282 -0.0081404941 -1.93761 0.00041086331 -1.829085 -44.310532 -86.288254
25984000 -46.846779 -108.6817 -0.0075772088 -1.9651551 0.0057240976 -1.8724283 -48.833275 -85.813629
26483500 -50.334126 -95.346542 -0.002483113 -1.9039342 0.009429248 -1.9858359 -48.114857 -98.84655
26983000 -45.60482 -100.58591 -0.0258961 -1.9756205 -0.020564022 -2.0950935 -46.587708 -81.993317
27482500 -50.428139 -111.27522 -0.0067415265 -2.1064749 -0.016047515 -2.0389049 -46.215408 -108.16103
27982000 -46.369057 -87.493614 0.0093892589 -2.0353019 0.00054757536 -2.1202469 -47.192936 -86.98259
28481500 -45.2812 -94.912125 0.0016842756 -2.0402334 -0.0036716938 -2.2059071 -45.884151 -96.061234
28981000 -47.581959 -98.292374 -0.025215693 -2.1379125 -0.013407866 -2.0421469 -45.054623 -96.754791
29480500 -45.729202 -94.111183 -0.0039855731 -2.1422718 5.0601179e-006 -2.2418208 -46.820389 -91.755447
29980000 -49.803143 -91.140205 -0.013946945 -2.2577014 -0.0081197834 -2.2973065 -46.88562 -100.04729
30479500 -45.520969 -93.752083 -0.0017839436 -2.2547464 -0.014445946 -2.2449424 -45.629608 -97.299896
30979000 -46.43615 -81.97551 -0.008684814 -2.2596052 0.0017901774 -2.2878506 -46.703625 -84.060341
31478500 -46.174149 -95.378014 -0.014169446 -2.3199072 0.002843393 -2.3567076 -47.458557 -86.878174
31978000 -42.791012 -95.248772 -0.018556107 -2.3263097 0.0038401072 -2.4131711 -44.466068 -89.551552
32477500 -46.067337 -107.80555 -0.0078835934 -2.3709486 -0.010903353 -2.3443899 -46.67157 -90.076569
32977000 -44.945724 -85.112617 0.0012074896 -2.5063388 -0.010306417 -2.5086238 -44.302837 -90.07222
33476500 -46.457474 -82.776085 -0.012228442 -2.5009458 0.0034915479 -2.5107641 -44.345184 -96.828262
33976000 -45.45731 -91.525146 -0.00063042331 -2.448283 -0.0068893442 -2.5231366 -45.027863 -97.965446
34475500 -45.423439 -103.71788 -0.0065159979 -2.4978473 0.00012535378 -2.5972815 -45.726112 -91.72332
34975000 -44.952339 -80.285088 -0.0016561063 -2.5339363 -0.011997272 -2.6353097 -43.742088 -88.067863
35474500 -45.413647 -90.605507 -0.0045601879 -2.6492608 -0.01405864 -2.6139863 -44.899166 -93.705322
35974000 -44.764145 -92.415428 -0.0042276881 -2.719676 0.00042180027 -2.6643174 -44.783543 -99.453102
36473500 -43.741924 -103.87016 -0.0069457218 -2.6919668 -0.0064038886 -2.6978269 -44.748444 -97.73278
36973000 -44.903763 -94.012177 -0.011082095 -2.7930541 -0.0028693196 -2.7055082 -42.562191 -100.31111
37472500 -43.460205 -91.023132 -0.012281435 -2.7946875 -0.014449294 -2.8287241 -43.494919 -99.151047
37972000 -43.788342 -86.739136 -0.0035432652 -2.8481851 -0.019976486 -2.7720499 -45.093853 -95.460251
38471500 -43.000263 -86.113075 0.0012704445 -2.9647672 -0.00076087937 -2.8541825 -43.688202 -104.51103
38971000 -43.609589 -90.629539 -0.0089101577 -2.9254858 -0.003355823 -2.8962831 -43.357727 -91.708717
39470500 -43.588947 -101.24562 -0.012559875 -2.9836946 -0.00084303913 -2.9801836 -43.712898 -88.978233
39970000 -44.134338 -91.575752 -0.012721215 -2.9961026 -0.0057582962 -2.9922791 -43.965755 -97.402016
40469500 -42.792244 -88.561569 -0.0012053916 -3.0417058 -0.019120229 -3.066808 -43.54385 -91.500015
40969000 -43.032249 -93.005074 -0.0095464857 -3.0726316 -0.017841548 -3.0553405 -43.461094 -97.405525
41468500 -42.916821 -84.259384 -0.0036620952 -3.1013093 -0.012199006 -3.1190667 -43.848728 -90.943359
41968000 -43.178059 -86.894333 -0.0083109979 -3.1415339 -0.012421529 -3.1838529 -43.349628 -91.819344
42467500 -41.891407 -91.250633 -0.0052547893 -3.1905205 -0.0069375765 -3.2909982 -42.858078 -94.263283
42967000 -42.145454 -91.209953 -0.014041007 -3.168263 -0.0026064918 -3.3235846 -42.157379 -95.308846
43466500 -43.36393 -90.065926 -0.0056488165 -3.2857792 -0.014761324 -3.3083415 -42.877354 -93.360527
43966000 -42.012497 -89.590225 -0.014603317 -3.3499401 -0.008470864 -3.3019893 -42.065941 -92.584496
44465500 -42.497761 -89.738335 -0.0063139154 -3.3314538 -0.0053787236 -3.3306952 -42.443363 -98.545898
44965000 -42.280224 -93.388199 -0.0092934035 -3.3641129 -0.0092846071 -3.3503904 -42.022102 -99.217453
45464500 -41.218475 -95.253304 0.0078223562 -3.5034065 -0.0055049178 -3.6563408 -44.163769 -100.51628
45964000 -39.176968 -82.781387 -0.014983363 -3.5735285 0.0089819785 -3.3221865 -45.064362 -89.969162
46463500 -43.085712 -99.141106 -0.021512808 -3.5245833 0.012910988 -3.5865333 -41.202576 -100.61659
46963000 -42.389637 -85.354927 -0.030525604 -3.4454415 0.0042945407 -3.5074732 -40.128071 -104.13505
47462500 -39.989082 -95.754257 -0.0015879138 -3.6015878 -0.0050777742 -3.5226686 -40.628025 -80.965248
47962000 -40.158958 -84.42128 -0.0096813729 -3.7782831 -0.023166252 -3.8256385 -40.828533 -92.946762
48461500 -41.149281 -90.24514 -0.0065143392 -3.7952719 -0.064302184 -3.6710782 -41.752945 -98.407433
48961000 -42.478424 -77.546951 -0.0033836062 -3.7258601 -0.020879226 -3.7285905 -41.004444 -100.15999
49460500 -42.38065 -91.507782 -0.017405096 -3.678982 0.0021602998 -3.7679152 -41.697708 -101.68363
49960000 -41.630596 -80.50882 -0.0052952422 -3.7804773 -0.012733198 -3.9621491 -43.293884 -96.654167
50459500 -41.017307 -79.128807 -0.0066799722 -3.6633835 -0.0089980736 -3.7667243 -40.842369 -88.121193
50959000 -41.048931 -90.157379 -0.010643734 -3.8560119 -0.019049618 -3.993181 -40.966759 -92.096001
51458500 -40.919849 -99.602844 -0.017854748 -3.9092238 0.0043372549 -3.9505584 -39.953327 -94.891685
51958000 -40.296844 -92.164131 -0.02163847 -3.8141694 0.0052249501 -4.0374618 -41.877758 -88.754906
52457500 -43.142834 -75.898109 0.01549092 -4.0181265 0.011762518 -4.0988808 -40.474701 -89.76358
52957000 -41.125393 -102.518 -0.021744758 -3.9291 0.01047818 -4.0769382 -42.572693 -91.443291
53456500 -40.011238 -91.165474 -0.03650751 -4.0159917 0.020911679 -4.0175738 -39.723309 -91.834396
53956000 -40.540588 -82.539719 -0.0096259974 -4.1757736 -0.037668888 -4.2577529 -38.729118 -95.259392
54455500 -39.42363 -97.647415 0.017280912 -4.0545139 0.0036480622 -4.1643491 -40.491764 -93.127869
54955000 -39.968021 -97.399704 -0.029784 -4.0680857 0.0072507365 -4.2654533 -41.054157 -88.276436
55454500 -38.579456 -95.464432 -0.019372465 -4.2770429 -0.023223121 -4.0939822 -40.503757 -94.966476
55954000 -40.072147 -93.85907 -0.014746856 -4.3315206 -0.0017040549 -4.3786192 -39.102501 -83.647896
56453500 -38.326519 -93.361259 -0.012335545 -4.2364311 -0.00034637016 -4.1164541 -40.848774 -87.934471
56953000 -40.011604 -88.145378 -0.026982516 -4.3946648 -0.04750732 -4.3886123 -41.638809 -97.503471
57452500 -40.369919 -101.92291 0.0040076617 -4.2819958 0.0060047638 -4.4855871 -38.568295 -94.550072
57952000 -39.502594 -101.79773 -0.030235305 -4.4293299 -0.023966162 -4.5399766 -39.429398 -89.343544
58451500 -40.90889 -89.856003 -0.015113267 -4.5515804 0.015179884 -4.4577103 -40.65242 -89.058434
58951000 -39.459743 -91.550117 -0.025997061 -4.6452026 0.0060618874 -4.3913965 -40.087784 -91.773384
59450500 -38.057293 -96.637337 -0.00065221003 -4.3868198 -0.0066358964 -4.4993591 -40.063171 -97.717445
59950000 -37.90572 -92.934418 -0.016367303 -4.6605601 -0.011170329 -4.4629216 -40.60841 -96.376053
60449500 -38.917053 -94.94413 -0.0039836615 -4.6608377 -0.0055156075 -4.6505384 -39.442802 -85.59481
60949000 -37.818745 -93.811691 -0.018574623 -4.6443615 -0.014579098 -4.5145202 -39.672123 -97.761139
61448500 -38.535599 -93.571167 -0.020154933 -4.8182192 -0.018086407 -4.6257248 -37.834557 -93.177658
61948000 -38.745037 -94.193565 -0.016093319 -4.733366 0.0019806961 -4.6582332 -38.275009 -101.04286
62447500 -37.403526 -92.270691 -0.0051786085 -4.7052345 -0.020188568 -4.7851124 -39.573826 -94.843178
62947000 -38.657642 -96.748192 -0.0057527935 -4.8685617 -0.0095028784 -4.8109393 -38.871986 -95.087021
63446500 -39.067528 -94.210701 -0.01558722 -4.7407999 -0.015913036 -4.8983097 -37.835915 -89.340317
63946000 -38.525887 -94.926559 -0.010680344 -4.8299136 -0.018293353 -4.801939 -38.806419 -100.77222
64445500 -40.417404 -99.562744 -0.027325712 -4.9140916 -0.013284069 -4.8777957 -39.499844 -95.753639
64945000 -37.599712 -90.892166 -0.018869307 -4.9325037 -0.023611043 -4.8919654 -38.12318 -95.926422
65444500 -39.018978 -92.414879 0.0092093907 -5.0315557 -0.021895438 -4.9607015 -38.832066 -94.612068
65944000 -38.612263 -94.968109 -0.020993073 -4.9434171 -0.0096977539 -5.1167789 -39.309166 -88.18721
66443500 -38.737675 -88.386871 0.00051459385 -5.0197411 0.0016836937 -5.0517473 -38.236435 -92.499634
66943000 -38.196404 -104.37141 -0.024177535 -5.0825801 -0.017916376 -5.172677 -38.140652 -87.408333
67442500 -38.291546 -86.166061 0.005747505 -5.0992856 -0.016454175 -5.2357941 -37.722744 -107.04153
67942000 -37.87532 -89.575111 -0.01610869 -5.2009711 0.019094391 -5.1932659 -38.862225 -95.071877
68441500 -38.537117 -94.478828 0.0076267296 -5.224184 -0.01507636 -5.2686224 -38.02047 -89.50515
68941000 -38.068794 -98.571632 -0.016876586 -5.2672744 -0.011627603 -5.2433534 -37.428295 -95.054375
69440500 -38.603512 -96.216164 -0.0081185102 -5.0758781 -0.011616014 -5.2570786 -36.787582 -94.824303
69940000 -37.656994 -96.55883 -0.020563953 -5.3622537 -0.011800496 -5.3177028 -37.870514 -94.091805
70439500 -37.216225 -99.388748 -0.01917257 -5.3451099 -0.021598399 -5.4500995 -37.415558 -102.35697
70939000 -37.781796 -93.150963 -0.014952017 -5.2847939 0.011326817 -5.2812209 -37.736309 -95.674927
71438500 -37.726234 -87.918594 -0.01870882 -5.4475141 -0.014086077 -5.4028668 -38.289989 -93.25293
71938000 -39.270985 -95.030159 -0.0072796624 -5.4016838 -0.016875032 -5.5139642 -37.479996 -91.854446
72437500 -36.482708 -95.519791 -0.0026987328 -5.4775391 -0.035520967 -5.536191 -38.097404 -99.429268
72937000 -37.251766 -94.108589 -0.021023579 -5.5771041 -0.012633691 -5.5164766 -37.394024 -94.192894
73436500 -37.917294 -98.376678 -0.0049633509 -5.5886288 -0.031293724 -5.5675731 -37.104134 -95.654427
73936000 -36.937595 -95.874985 -0.0051235394 -5.5709596 -5.0674149e-005 -5.5351839 -37.056511 -92.309174
74435500 -37.156422 -99.568573 -0.026900245 -5.7000341 -0.010343705 -5.7331414 -36.933498 -82.801132
74935000 -37.733604 -95.882553 -0.018326484 -5.6293707 -0.026972847 -5.6531367 -37.993214 -100.24007
75434500 -37.537182 -97.895782 0.015975665 -5.6575818 -0.025151977 -5.6398215 -37.700615 -86.943108
75934000 -38.165913 -100.68033 -0.011827222 -5.802 -0.025517751 -5.6844649 -37.180237 -100.59575
76433500 -37.634384 -95.870132 -0.015533922 -5.7045021 -0.01971779 -5.7519636 -37.235897 -99.045052
76933000 -36.694065 -97.133041 0.00042508842 -5.9103484 -0.021627106 -5.8756099 -37.074623 -89.759102
77432500 -36.486645 -94.059753 -0.020652743 -6.0473833 -0.0089107789 -5.8418255 -37.052483 -92.459511
77932000 -36.179539 -103.18395 -0.025918031 -5.8459206 -0.021993389 -5.8522515 -37.836235 -95.687805
78431500 -36.367546 -96.132431 -0.018281434 -5.9764647 -0.017268058 -5.8980212 -36.965057 -99.000648
78931000 -36.364868 -94.583611 -0.015981274 -6.0085497 -0.018173633 -6.0934095 -36.611584 -95.71273
79430500 -36.677612 -101.42006 -0.022256894 -5.917037 -0.019262249 -6.0212302 -36.608452 -91.978569
79930000 -36.96825 -100.66211 -0.0058952994 -5.9680004 -0.018601347 -5.981483 -36.276569 -92.370392
80429500 -36.515228 -96.496422 -0.021731351 -6.1635637 0.013090941 -6.0688915 -37.446407 -94.520889
80929000 -36.459576 -93.728065 -0.0063107698 -6.2461753 -0.0095862783 -6.1539454 -37.059464 -96.903923
81428500 -35.690655 -95.662216 -0.0232528 -6.2762918 -0.014932879 -6.1217508 -35.934753 -89.772133
81928000 -36.296833 -102.22945 -0.013968114 -6.2015119 -0.013658051 -6.3149562 -36.184692 -97.104034
82427500 -35.92625 -98.995247 -0.020069432 -6.2266808 -0.02176608 -6.2541456 -36.377216 -94.584
82927000 -37.189236 -91.799637 -0.0081295082 -6.1881852 0.0044649518 -6.3243098 -36.924717 -95.954323
83426500 -36.130203 -102.08353 -0.0068631847 -6.4004073 -0.014222211 -6.3084736 -36.849846 -95.380302
83926000 -35.709843 -95.658997 -0.011818299 -6.2687693 -0.01804816 -6.2854896 -36.433048 -94.690392
84425500 -35.776699 -97.444763 -0.015048351 -6.3571224 -0.018077793 -6.3914781 -37.17733 -94.775826
84925000 -36.180347 -97.502922 -0.006992898 -6.370666 -0.0070611178 -6.5168533 -36.135418 -96.705963
85424500 -35.749306 -93.026573 0.0013179518 -6.4469433 -0.015265498 -6.4219828 -36.250271 -97.05629
85924000 -35.647045 -104.62392 -0.0085408529 -6.6133637 -0.0064174901 -6.4576926 -36.477898 -96.663116
86423500 -36.673973 -99.816551 -0.02770089 -6.5665941 -0.020814644 -6.5728478 -35.713966 -95.278847
86923000 -36.132275 -95.788918 -0.011236337 -6.6343541 -0.011012245 -6.6924186 -36.104912 -97.481674
87422500 -36.394188 -97.826836 -0.018250259 -6.5411587 -0.0097500272 -6.6241431 -35.687977 -93.711449
87922000 -35.767918 -97.587036 -0.022182764 -6.664525 -0.020421283 -6.6636438 -35.46489 -98.242249
88421500 -36.400669 -97.864037 -0.0083820429 -6.7174258 -0.016186567 -6.6984401 -35.835674 -98.800972
88921000 -35.971817 -97.483521 -0.029276067 -6.7999701 -0.0028584301 -6.7949014 -36.181435 -93.914734
89420500 -36.011356 -98.528442 -0.01777521 -6.7559419 -0.020166228 -6.8562193 -35.745754 -99.232048
89920000 -35.742027 -101.13354 -0.024848796 -6.8427024 0.0020990481 -6.8493671 -35.458012 -95.684402
90419500 -35.750069 -102.7682 -0.024456384 -6.8613443 -0.013813348 -6.8809404 -35.490067 -94.761147
90919000 -36.021465 -93.675835 -0.023173805 -6.8793459 -0.027323505 -6.8628654 -36.322361 -96.240593
91418500 -36.042706 -101.56654 -0.0079605831 -6.8908458 -0.038121372 -6.99828 -35.361797 -97.426697
91918000 -35.581959 -99.499237 -0.017227756 -6.891788 -0.015111856 -7.0343223 -35.841618 -95.265434
92417500 -35.700184 -98.406265 -0.014752814 -7.0172372 -0.02133289 -7.0604177 -35.594822 -94.881371
92917000 -35.114681 -100.78108 -0.030758318 -7.0247073 -0.019307068 -7.0241036 -35.26667 -97.165054
93416500 -35.528114 -96.839172 -0.015725799 -7.0993719 -0.021198548 -7.1829906 -35.271969 -98.014679
93916000 -35.401588 -102.99021 -0.018895648 -7.0959463 -0.022246046 -7.1345696 -35.527149 -94.93235
94415500 -34.966255 -94.755165 -0.022645062 -7.1542602 -0.018078627 -7.09904 -35.093124 -94.21199
94915000 -35.090611 -97.846252 -0.020013206 -7.179656 -0.03866316 -7.1588674 -35.310543 -97.885406
95414500 -35.289314 -95.610344 -0.023513298 -7.1727533 -0.0053858077 -7.233809 -35.457558 -97.264671
95914000 -34.848679 -97.395706 -0.0089309588 -7.2569165 -0.037982527 -7.2361431 -34.918823 -91.726303
96413500 -35.270691 -95.872925 -0.017651413 -7.334002 -0.016062425 -7.3041959 -35.269619 -98.03727
96913000 -35.23217 -98.910614 -0.025428278 -7.4960642 -0.01299692 -7.3256941 -35.380608 -95.099686
97412500 -35.237144 -96.546165 -0.023905389 -7.4218082 -0.045194689 -7.3648529 -34.677879 -97.960426
97912000 -34.417469 -101.38541 -0.019550728 -7.3540359 -0.023675282 -7.43361 -34.760674 -97.929169
98411500 -34.437626 -97.320152 -0.011230716 -7.3735409 -0.0043536732 -7.4570599 -35.647125 -96.473007
98911000 -35.101448 -94.99408 -0.014793782 -7.4422312 -0.015656741 -7.5272255 -35.524094 -96.933609
99410500 -35.609783 -96.727959 -0.022554718 -7.5249004 -0.028967086 -7.5140142 -34.856937 -94.502762
99910000 -34.528603 -97.746147 -0.018552519 -7.5097733 -0.0076096365 -7.5939069 -35.217243 -96.242409
100409500 -34.571529 -99.071472 -0.022886865 -7.5266166 -0.020297475 -7.5697212 -34.743027 -98.459717
100909000 -34.995651 -98.565933 -0.02193952 -7.6946335 -0.016735861 -7.5839663 -34.927868 -98.773033
101408500 -34.859802 -100.98316 -0.017549898 -7.7058024 0.0019472903 -7.68329 -34.391068 -95.509666
101908000 -33.875809 -99.790871 -0.024476137 -7.6389151 -0.021124691 -7.6733274 -34.748856 -97.307358
102407500 -33.941139 -95.497803 -0.0092103882 -7.7450981 -0.034099322 -7.6768475 -34.741543 -100.51327
102907000 -34.357616 -98.432434 -0.023709895 -7.7701268 -0.014418744 -7.7740865 -34.551384 -96.713829
103406500 -34.495846 -95.58812 -0.019018278 -7.8110752 -0.014356309 -7.8693829 -34.188023 -96.597084
103906000 -34.758564 -105.32122 -0.02570927 -7.8859205 -0.025838939 -7.816 -34.559826 -96.479218
104405500 -34.39357 -98.571243 -0.013555052 -7.9051671 -0.021775361 -7.892035 -34.713528 -98.313354
104905000 -34.882027 -100.12701 -0.025658004 -7.9267778 -0.025055151 -7.9705148 -33.500923 -94.798454
105404500 -34.233871 -99.848518 -0.035289608 -7.9357824 -0.018933093 -8.0543728 -34.444214 -100.85922
105904000 -34.551876 -101.7412 -0.022344274 -8.0925417 -0.032952875 -8.1248283 -33.966156 -98.21579
106403500 -34.22884 -102.55014 -0.020021535 -8.004283 -0.020935668 -8.0324974 -34.588799 -96.54998
106903000 -34.273174 -99.795792 -0.021764437 -8.1943197 -0.018936522 -8.1457396 -34.535992 -97.775307
