!Agilent Technologies,E8362C,MY43020457,A.09.42.15
!Agilent E8362C: A.09.42.15
!Date: Friday, March 13, 2026 15:05:38
!Correction: S11(Full 2 Port(1,2)) 
!S21(Full 2 Port(1,2)) 
!S12(Full 2 Port(1,2)) 
!S22(Full 2 Port(1,2)) 
!S2P File: Measurements: S11, S21, S12, S22:
# Hz S  dB   R 50
10000000 -2.9974868 179.37698 -10.434944 -2.5583854 -10.836328 -1.7948503 -2.9144337 179.13791
10499500 -2.8301618 178.72752 -10.914144 -2.0634351 -10.648913 -1.9739642 -2.8876023 179.07785
10999000 -2.9507158 179.64456 -10.85352 -1.4412535 -10.640877 -1.9400847 -2.88781 -179.96358
11498500 -2.9505582 179.80904 -10.806917 -2.306226 -11.018733 -1.1826018 -2.9936657 -179.97557
11998000 -2.9161053 179.58444 -11.108778 -2.1671295 -10.589462 -2.3449419 -2.8736506 179.66074
12497500 -2.8980303 179.2681 -10.847603 -3.7505291 -10.778478 -2.7475438 -2.9103518 179.64835
12997000 -2.9068916 179.632 -11.013816 -2.7990112 -10.901026 -2.5351067 -2.9781499 179.16801
13496500 -2.9543457 179.42468 -10.958846 -2.1174695 -10.826204 -1.5114374 -2.8805897 179.4366
13996000 -2.927253 179.24689 -10.958775 -2.8465769 -10.854128 -2.9095173 -2.9110551 179.34947
14495500 -2.9107113 179.3232 -10.775607 -2.7694213 -10.831649 -2.4630084 -2.9341187 179.23889
14995000 -2.9507067 179.07784 -10.954291 -2.6378286 -10.937995 -2.8137729 -2.9217103 179.11182
15494500 -2.9451735 179.07549 -10.904838 -2.7747076 -11.010067 -2.8438182 -2.9034367 179.36279
15994000 -2.9446039 179.20912 -10.930905 -3.0802677 -10.929646 -3.0103924 -2.9082222 178.92101
16493500 -2.9646146 178.7742 -10.860574 -2.8923395 -10.88303 -2.1155243 -2.8946998 178.88721
16993000 -2.9073067 179.01361 -10.960154 -2.8648748 -10.96143 -2.7167869 -2.9063904 179.12903
17492500 -2.9315429 178.84918 -10.889873 -2.8490062 -10.931664 -2.7596436 -2.8921545 178.87625
17992000 -2.9083438 178.74232 -10.921981 -2.9432034 -10.882391 -2.667902 -2.9281428 178.67984
18491500 -2.9238088 178.69672 -10.847544 -3.062896 -10.940435 -2.6139171 -2.9109554 178.78098
18991000 -2.9226658 178.73134 -10.936199 -3.2574232 -10.91854 -2.4304581 -2.9056289 178.70665
19490500 -2.9100089 178.65276 -10.94568 -2.971566 -10.953892 -2.7310648 -2.9109144 178.66043
19990000 -2.898478 178.55562 -10.934128 -2.9082556 -10.917734 -2.9019783 -2.905318 178.67149
20489500 -2.9253359 178.65117 -10.90976 -2.6911702 -10.861528 -2.8543074 -2.9118853 178.58144
20989000 -2.9070413 178.53755 -10.882072 -3.1721189 -10.945795 -3.0199945 -2.9013939 178.51904
21488500 -2.9011111 178.36383 -10.897434 -3.0408142 -10.880845 -3.060709 -2.9082754 178.57697
21988000 -2.8998034 178.44588 -10.915948 -3.0364461 -10.964918 -2.9900894 -2.9148672 178.36217
22487500 -2.90802 178.43301 -10.948868 -3.0109432 -10.916902 -2.9838848 -2.9256499 178.48286
22987000 -2.9156315 178.35135 -10.919571 -3.3390186 -10.897736 -2.9467688 -2.900574 178.32317
23486500 -2.9242694 178.20894 -10.887619 -3.3565693 -10.945786 -3.0264254 -2.9091492 178.12083
23986000 -2.9120872 178.22276 -10.929795 -2.9616582 -10.971242 -2.8765171 -2.8937097 178.13649
24485500 -2.9062026 178.20404 -10.914567 -3.384155 -10.945598 -2.8684046 -2.896091 178.15359
24985000 -2.8967857 178.04591 -10.941246 -3.4542139 -10.958489 -3.2817221 -2.9272203 178.06915
25484500 -2.9065454 177.99269 -10.944177 -3.346168 -10.904334 -3.1402702 -2.9099064 178.0061
25984000 -2.8953469 177.92142 -10.935954 -3.4192951 -10.960396 -3.5628889 -2.9046171 178.05513
26483500 -2.9101479 177.94412 -10.90653 -3.6852756 -10.921655 -3.3050847 -2.9128518 177.89621
26983000 -2.9025016 177.82785 -10.97353 -3.5541177 -10.986762 -3.60446 -2.8952591 177.95218
27482500 -2.8945584 177.84558 -10.932107 -3.5839872 -10.943953 -3.6270385 -2.8970068 177.92212
27982000 -2.9085364 177.77982 -10.93459 -3.5843494 -10.937321 -3.4134412 -2.9021542 177.79723
28481500 -2.8880613 177.65373 -10.893825 -3.5347157 -10.938478 -3.6921177 -2.8912768 177.8483
28981000 -2.8979876 177.73528 -10.939044 -3.9223118 -10.950068 -3.5516787 -2.9117327 177.77438
29480500 -2.9032803 177.71306 -10.936118 -3.7011254 -10.92885 -3.6496031 -2.9160776 177.60799
29980000 -2.9077771 177.53345 -10.918712 -3.7951832 -10.958666 -3.7874982 -2.8946681 177.58096
30479500 -2.9020875 177.55298 -10.937042 -3.7937057 -10.942554 -3.7704904 -2.9041359 177.59863
30979000 -2.9004803 177.5769 -10.921045 -3.967402 -10.985065 -3.909416 -2.8956821 177.65717
31478500 -2.8956826 177.52382 -10.939468 -3.917531 -10.929107 -3.7627292 -2.9147522 177.50366
31978000 -2.8999801 177.33975 -10.935642 -3.9259155 -10.926122 -3.9553599 -2.8945384 177.47444
32477500 -2.9022043 177.39354 -10.904268 -4.1177344 -10.942958 -3.9259911 -2.914619 177.4561
32977000 -2.8965013 177.35481 -10.946524 -4.047339 -10.940098 -3.7796209 -2.918263 177.38173
33476500 -2.897372 177.34044 -10.955223 -4.1236811 -10.954414 -4.0139179 -2.9182346 177.35713
33976000 -2.8928764 177.19167 -10.93365 -4.0552564 -10.937025 -4.0911055 -2.8979561 177.22896
34475500 -2.8856757 177.19751 -10.928345 -4.1713958 -10.93031 -4.0324717 -2.9066613 177.30791
34975000 -2.8894672 177.14444 -10.934651 -4.1863165 -10.951874 -4.1837935 -2.9099503 177.19191
35474500 -2.901469 177.09796 -10.942572 -4.3070416 -10.980699 -4.0454378 -2.9085073 177.12617
35974000 -2.8973963 177.02252 -10.96541 -4.3071718 -10.9427 -4.2007742 -2.9034393 177.1279
36473500 -2.8876984 176.91905 -10.941712 -4.3301282 -10.954909 -4.308815 -2.8891571 177.05722
36973000 -2.8862052 176.89709 -10.965165 -4.3822947 -10.965776 -4.3500552 -2.9071524 177.02083
37472500 -2.8971937 176.93834 -10.963058 -4.4599986 -10.950882 -4.2373991 -2.8861957 176.90765
37972000 -2.8916202 176.81038 -10.963068 -4.4968467 -10.961907 -4.3742552 -2.9019237 176.88248
38471500 -2.8960922 176.73987 -10.943734 -4.4421334 -10.955382 -4.4074569 -2.909605 176.88429
38971000 -2.9121256 176.71445 -10.964623 -4.4966798 -10.952168 -4.4783034 -2.906564 176.82529
39470500 -2.9023979 176.74188 -10.935117 -4.5409365 -10.945911 -4.6089025 -2.9010236 176.78186
39970000 -2.8890953 176.68974 -10.958477 -4.6343822 -10.953882 -4.6651721 -2.9038494 176.68518
40469500 -2.8969619 176.64944 -10.938977 -4.7723355 -10.962622 -4.723444 -2.8883572 176.62498
40969000 -2.8979852 176.56435 -10.948769 -4.6831503 -10.965378 -4.6106105 -2.9046671 176.63034
41468500 -2.9028006 176.48227 -10.951055 -4.753242 -10.973105 -4.7143059 -2.9174232 176.56108
41968000 -2.8940437 176.45816 -10.956176 -4.9108195 -10.958572 -4.7841969 -2.8934526 176.54868
42467500 -2.891134 176.37474 -10.958984 -4.994411 -10.964491 -4.9008999 -2.9025023 176.46277
42967000 -2.8963361 176.36365 -10.965968 -4.8805962 -10.957056 -4.8687124 -2.8960323 176.37904
43466500 -2.8963776 176.39438 -10.950736 -5.0301738 -10.954122 -4.9000559 -2.8983555 176.49344
43966000 -2.8940446 176.16692 -10.972857 -4.9894123 -10.983294 -4.9792447 -2.9030848 176.4053
44465500 -2.8983181 176.22133 -10.944636 -4.9528313 -10.955445 -4.9588552 -2.9004726 176.34651
44965000 -2.8966963 176.21332 -10.968752 -4.9956479 -10.968268 -5.0079355 -2.9015229 176.28693
45464500 -2.9316421 176.09332 -10.957236 -4.9906039 -10.986033 -5.5572848 -2.8820307 176.15858
45964000 -2.8987396 175.98537 -10.954321 -5.4394855 -10.956614 -5.5436373 -2.875344 176.17464
46463500 -2.8984127 175.96602 -11.005959 -4.9738469 -10.954913 -4.6230173 -2.9321208 176.22084
46963000 -2.9084163 175.88451 -11.027912 -4.9179912 -10.993112 -4.8698816 -2.8791428 176.14182
47462500 -2.8840148 175.8678 -10.972248 -5.4207101 -10.973303 -5.273963 -2.8888996 176.00505
47962000 -2.9086304 175.87955 -11.016328 -5.5205054 -11.019598 -5.9061842 -2.8902333 175.95651
48461500 -2.8960042 175.96408 -11.042927 -5.2653308 -10.993617 -5.3724284 -2.8990772 175.80296
48961000 -2.9312832 175.72987 -10.966965 -5.6083083 -11.014002 -5.3727303 -2.9299436 175.86673
49460500 -2.8940759 175.84895 -10.961143 -5.1677995 -10.983953 -5.3470478 -2.9041235 175.70772
49960000 -2.9051626 175.81354 -11.027411 -5.4124222 -10.976138 -5.5622716 -2.8904223 175.7016
50459500 -2.8995342 175.61369 -11.042866 -5.6349258 -10.993177 -5.4156947 -2.907028 176.03001
50959000 -2.9137232 175.43854 -10.98578 -5.4597883 -11.016644 -5.8708205 -2.8977787 175.49428
51458500 -2.9004011 175.5125 -10.966848 -5.593483 -10.99056 -5.6485157 -2.9033408 175.67412
51958000 -2.8941333 175.33018 -11.046422 -5.5394421 -10.968508 -5.9277048 -2.9223402 175.70985
52457500 -2.912709 175.39377 -11.047026 -5.9321747 -10.959755 -5.2773294 -2.8832476 175.63745
52957000 -2.8993094 175.56699 -11.018787 -5.7953463 -11.012655 -5.6918278 -2.9002187 175.56403
53456500 -2.9130278 175.33742 -11.014909 -5.5709147 -10.995749 -5.5672865 -2.921207 175.39931
53956000 -2.8863952 175.2426 -11.045361 -5.8177938 -10.922955 -5.5041971 -2.8972628 175.54784
54455500 -2.8783648 175.25706 -10.986198 -5.8868132 -10.983677 -5.7969751 -2.9279261 175.26608
54955000 -2.9056737 175.17264 -10.990085 -5.8789506 -10.969609 -6.3316326 -2.9083996 175.33345
55454500 -2.9223483 175.27548 -11.040102 -6.1185293 -11.000046 -5.5983176 -2.8967967 175.38927
55954000 -2.8908527 175.1344 -10.987292 -6.0550742 -11.054539 -6.0420232 -2.9412632 175.2357
56453500 -2.886862 175.06102 -10.975942 -6.2538824 -11.028307 -5.8250365 -2.9035954 175.20116
56953000 -2.891109 175.14355 -10.97792 -6.1718512 -10.994256 -6.1321063 -2.9375522 175.20555
57452500 -2.9083149 174.98557 -11.019961 -6.3106093 -11.02728 -6.0957685 -2.8983178 175.02832
57952000 -2.9150496 174.95592 -11.014372 -5.9115653 -10.998031 -6.0304031 -2.901253 175.0574
58451500 -2.9150476 175.05435 -11.021038 -6.3178463 -10.957437 -6.2217994 -2.9049435 175.17104
58951000 -2.8987739 174.81569 -10.95702 -6.3619504 -10.941357 -5.7526197 -2.8837504 174.98625
59450500 -2.9046817 174.57639 -10.982281 -5.9939971 -10.989931 -6.1603861 -2.8592281 174.9456
59950000 -2.9283152 174.65149 -11.018424 -6.5270576 -10.993976 -5.9181561 -2.9244473 174.77203
60449500 -2.8745677 174.6337 -11.042338 -6.0881739 -11.023742 -6.2304773 -2.899101 174.88339
60949000 -2.8971355 174.67654 -11.008779 -6.2146258 -10.976142 -6.7066488 -2.8974235 174.84967
61448500 -2.8912475 174.54652 -11.040837 -6.5655956 -10.984257 -6.5506773 -2.8831303 174.81357
61948000 -2.8932388 174.61604 -11.046599 -6.3952866 -11.049284 -6.327311 -2.8890765 174.70648
62447500 -2.912107 174.57552 -11.000508 -6.154705 -11.022696 -6.6050801 -2.8999562 174.70079
62947000 -2.9161901 174.29739 -10.973532 -6.6640005 -11.0094 -6.3542876 -2.8964317 174.78961
63446500 -2.9079936 174.37671 -11.001605 -6.0346065 -11.06414 -6.462708 -2.9094141 174.52319
63946000 -2.8855569 174.2256 -10.975756 -6.8266702 -11.02444 -6.4297328 -2.8769696 174.27924
64445500 -2.8765709 174.31685 -10.967607 -6.5626421 -11.034713 -6.6254749 -2.8873696 174.46652
64945000 -2.8953552 174.28625 -11.032431 -6.8001647 -11.032416 -6.9571047 -2.8887331 174.51634
65444500 -2.9125683 174.23622 -11.003906 -6.8328934 -11.033446 -6.6167564 -2.9210479 174.452
65944000 -2.9017782 174.05742 -11.022623 -6.9491787 -10.972534 -7.1068511 -2.9055831 174.31432
66443500 -2.9153802 174.16429 -11.003637 -6.8208117 -11.032669 -6.4734826 -2.8990865 174.51363
66943000 -2.9237816 173.98048 -11.001534 -6.9381671 -11.023545 -6.7917166 -2.9413538 174.24797
67442500 -2.9109235 174.15179 -11.034855 -6.9720612 -10.982946 -6.8977356 -2.9157033 174.2795
67942000 -2.8807998 173.99248 -11.027477 -6.8596101 -10.969214 -6.9769464 -2.8892331 174.23027
68441500 -2.9158812 173.81923 -11.023618 -7.025918 -11.02922 -7.1006389 -2.86834 174.12621
68941000 -2.9233963 173.95465 -11.02357 -7.3092527 -10.996919 -6.7826934 -2.9002249 174.10199
69440500 -2.8758762 173.85179 -10.980031 -6.9197497 -11.001036 -7.2398238 -2.9071851 173.99399
69940000 -2.8630621 173.66467 -11.032913 -7.1394224 -11.012679 -7.0337386 -2.900399 174.06058
70439500 -2.8707197 173.86496 -11.040189 -7.0178223 -10.992331 -6.8037477 -2.9200966 174.04179
70939000 -2.883399 173.65135 -10.979895 -7.3309021 -11.008332 -7.055481 -2.9016538 173.92104
71438500 -2.8864563 173.52545 -11.041819 -7.104691 -11.030991 -7.2185216 -2.9105523 173.84813
71938000 -2.8897154 173.49153 -10.997012 -7.4370542 -11.076091 -6.9696479 -2.9015908 173.92096
72437500 -2.8886163 173.61572 -10.989647 -7.4611526 -11.030279 -7.4684978 -2.8827271 173.73923
72937000 -2.9100256 173.62805 -11.026392 -7.6555495 -11.035927 -7.6061482 -2.9095774 173.68356
73436500 -2.8812666 173.70383 -11.001681 -7.4949069 -11.05408 -7.3002658 -2.8797736 173.91544
73936000 -2.9315369 173.43378 -10.953423 -7.3029594 -10.993463 -7.2061195 -2.912832 173.66302
74435500 -2.9177086 173.4167 -11.009377 -7.5538011 -11.047166 -7.5684662 -2.9017522 173.77199
74935000 -2.8861499 173.30136 -11.014266 -7.5572844 -11.008003 -7.4927578 -2.90871 173.51912
75434500 -2.8918188 173.24583 -11.02316 -7.340302 -10.978658 -7.3024216 -2.9185915 173.4395
75934000 -2.916657 173.24559 -11.003548 -7.8956494 -10.959163 -7.5990047 -2.8793254 173.62868
76433500 -2.8952971 173.25645 -10.990128 -7.609899 -11.008271 -7.4044819 -2.8973124 173.47841
76933000 -2.8935425 173.10275 -11.02468 -7.7411709 -11.032247 -7.6793151 -2.9041386 173.50803
77432500 -2.8844831 173.02919 -11.014691 -7.8239512 -10.99397 -7.8560505 -2.9050624 173.27837
77932000 -2.9025307 172.9848 -10.97558 -7.7079239 -11.043086 -7.8476477 -2.8972809 173.45334
78431500 -2.9044826 172.9565 -11.033051 -7.842361 -10.986135 -7.5015779 -2.901407 173.19748
78931000 -2.901334 172.98824 -11.033697 -7.8361077 -11.048814 -7.8713551 -2.8942518 173.28621
79430500 -2.8859997 172.96831 -11.039491 -7.8277135 -11.000504 -7.9018555 -2.888449 173.25272
79930000 -2.9141512 172.90813 -11.025795 -8.0492859 -11.016391 -7.9620991 -2.8998892 173.16324
80429500 -2.9153626 172.8371 -11.015262 -7.9023046 -11.035998 -7.7988243 -2.8936069 173.11592
80929000 -2.9035592 172.77438 -11.014257 -7.920249 -11.02422 -7.868309 -2.9072907 173.07106
81428500 -2.8945975 172.7856 -11.030838 -8.2022791 -11.026968 -7.8936734 -2.9121313 173.18884
81928000 -2.8855383 172.80153 -11.009962 -8.1027174 -11.003727 -8.0356121 -2.8961821 172.90306
82427500 -2.8801839 172.5984 -11.011338 -8.097599 -11.015745 -8.0873499 -2.9044137 172.9167
82927000 -2.9076269 172.65288 -11.041899 -8.2904654 -10.977334 -8.1723843 -2.9067237 172.96719
83426500 -2.8889945 172.56717 -11.023457 -8.0759706 -10.990105 -8.3667974 -2.9036269 172.71996
83926000 -2.8911159 172.56909 -11.019766 -8.0515642 -11.019107 -8.2077169 -2.9187751 172.88638
84425500 -2.8923392 172.61177 -11.010382 -7.9613943 -11.009798 -8.4619741 -2.8953104 172.60632
84925000 -2.8837469 172.5527 -10.967202 -8.3590822 -10.996575 -8.2836981 -2.8937173 172.70477
85424500 -2.8970883 172.37587 -11.024328 -8.3950672 -11.015231 -8.6024199 -2.9100087 172.62721
85924000 -2.8889966 172.37779 -11.024942 -8.5197897 -10.993087 -8.4362106 -2.9060946 172.70766
86423500 -2.8849349 172.32111 -11.034433 -8.5679874 -10.988482 -8.4718008 -2.9090824 172.67355
86923000 -2.9001489 172.2469 -11.018382 -8.8006954 -10.982156 -8.6581125 -2.8827152 172.506
87422500 -2.8971484 172.23575 -11.006353 -8.4567804 -11.006685 -8.4289503 -2.897742 172.39078
87922000 -2.8943534 172.12527 -10.986972 -8.7286673 -11.019817 -8.4172106 -2.8930018 172.43652
88421500 -2.8950338 172.17177 -10.989974 -8.7580385 -11.021385 -8.7965841 -2.9088855 172.37704
88921000 -2.9057529 172.08324 -10.996545 -8.7198982 -11.005771 -8.6994324 -2.9138331 172.42044
89420500 -2.8932941 171.93867 -11.014244 -8.735549 -11.013257 -8.8684568 -2.8863413 172.37732
89920000 -2.9047358 171.94826 -10.999368 -8.7006321 -11.016182 -8.8021669 -2.8924916 172.20135
90419500 -2.8890352 171.83195 -11.012179 -8.9356604 -11.012041 -8.6679373 -2.9075866 172.24684
90919000 -2.9028788 171.9124 -11.01592 -8.8674574 -11.030787 -8.9787054 -2.9126241 172.22305
91418500 -2.9159946 171.82184 -11.01323 -8.9331646 -11.014934 -9.0070667 -2.8906629 172.1662
91918000 -2.9118619 171.77557 -11.042203 -8.9239969 -11.03634 -9.0851536 -2.9067063 172.18553
92417500 -2.8911109 171.70575 -10.994047 -8.9627371 -11.040778 -9.0392256 -2.9028475 172.0565
92917000 -2.8819346 171.74699 -11.017075 -9.2338381 -11.001472 -8.9678984 -2.9052656 172.00624
93416500 -2.909132 171.66798 -10.991195 -9.2315588 -11.025172 -8.8889198 -2.9081261 171.90666
93916000 -2.9103951 171.52524 -10.989168 -9.1183052 -11.045732 -9.0142231 -2.902344 171.87262
94415500 -2.8978951 171.60204 -11.016635 -9.0842943 -11.030318 -9.4379768 -2.9075916 171.83302
94915000 -2.9093904 171.41492 -10.999605 -9.4009027 -11.043194 -9.1679716 -2.8968503 171.91338
95414500 -2.9021711 171.4187 -11.010169 -9.253726 -11.0186 -9.391202 -2.9083931 171.72658
95914000 -2.89957 171.40753 -10.991714 -9.3730717 -11.074685 -9.1931295 -2.9072635 171.73244
96413500 -2.8868856 171.38231 -11.002038 -9.4440708 -11.030824 -9.4109001 -2.9117708 171.68486
96913000 -2.9141746 171.39275 -11.031528 -9.5144644 -11.014373 -9.3357563 -2.9067783 171.659
97412500 -2.9001298 171.25371 -11.029414 -9.4486799 -11.025025 -9.2798834 -2.9012799 171.59398
97912000 -2.9049802 171.20041 -11.011277 -9.5759754 -11.028358 -9.5059614 -2.9072099 171.56639
98411500 -2.8996818 171.19131 -11.037044 -9.4868212 -10.990659 -9.6898041 -2.8875003 171.52493
98911000 -2.9019094 171.1805 -11.013 -9.8512354 -11.002516 -9.6409769 -2.9148147 171.45006
99410500 -2.9011891 171.02721 -11.011228 -9.7035513 -11.018876 -9.6494188 -2.907135 171.4364
99910000 -2.8968775 171.11647 -11.034045 -9.4336967 -11.022735 -9.5730057 -2.9021306 171.4883
100409500 -2.8970139 170.98169 -10.999992 -9.6776867 -10.990494 -9.7975807 -2.899653 171.29936
100909000 -2.9036155 170.9782 -11.011491 -9.7453699 -11.024742 -9.9653397 -2.9155004 171.2673
101408500 -2.9013507 170.91234 -10.995157 -9.9064293 -11.025187 -9.8506804 -2.9018345 171.19684
101908000 -2.9119298 170.93086 -11.029837 -9.6516342 -11.042942 -9.9172373 -2.9102571 171.24422
102407500 -2.9069433 170.91708 -11.028657 -9.8878527 -10.995892 -10.003087 -2.918371 171.19371
102907000 -2.891326 170.86783 -11.003136 -10.032184 -11.001705 -10.111801 -2.9204354 171.08514
103406500 -2.9023902 170.65057 -11.017167 -9.9517021 -11.034105 -10.14099 -2.9193599 171.11668
103906000 -2.9022446 170.7205 -10.985079 -10.081735 -11.00808 -10.125333 -2.8968816 171.04581
104405500 -2.898505 170.66092 -11.044862 -10.119529 -11.027205 -9.9784393 -2.9072845 171.00169
104905000 -2.9144545 170.47633 -11.018613 -10.253837 -11.033884 -10.033033 -2.9094071 170.98773
105404500 -2.9053178 170.45157 -11.02956 -10.232324 -11.059889 -10.332611 -2.9196341 170.97192
105904000 -2.9064188 170.48604 -11.046145 -10.366772 -11.017298 -10.272376 -2.9156725 170.8177
106403500 -2.8852139 170.53755 -10.990681 -10.480523 -11.026537 -10.446617 -2.9127796 170.89853
106903000 -2.8924189 170.4532 -11.029916 -10.476795 -11.044533 -10.424184 -2.8925607 170.82156
107402500 -2.9004767 170.41628 -11.033867 -10.461767 -11.043877 -10.548887 -2.9260213 170.72385
107902000 -2.8938243 170.27696 -10.98547 -10.477457 -11.008971 -10.271699 -2.8998582 170.77165
108401500 -2.8959076 170.2659 -10.974903 -10.439021 -11.015503 -10.349278 -2.8966024 170.6403
108901000 -2.9093525 170.13042 -11.020162 -10.602956 -11.00507 -10.455337 -2.9083037 170.52434
109400500 -2.9019847 170.16389 -11.030337 -10.566436 -11.008992 -10.698218 -2.909945 170.60291
109900000 -2.8970335 170.19354 -11.017743 -10.693663 -11.030081 -10.777692 -2.9065824 170.40115
110399500 -2.9020967 170.10506 -11.009575 -10.808401 -11.004025 -10.977268 -2.9044309 170.5022
110899000 -2.888974 170.00732 -11.017881 -10.717502 -11.06192 -10.836068 -2.905998 170.54224
111398500 -2.8979096 169.923 -11.019564 -10.814186 -11.025789 -10.92909 -2.9046354 170.38948
111898000 -2.9025793 169.981 -11.025152 -10.793612 -11.050571 -11.006968 -2.9123256 170.33304
112397500 -2.9046214 169.84302 -11.015849 -11.007842 -11.046046 -10.63612 -2.8950586 170.1933
112897000 -2.9063513 169.81599 -11.051801 -11.04346 -11.037425 -10.883001 -2.9108083 170.35153
113396500 -2.914006 169.8474 -11.002084 -10.937858 -11.048596 -10.853292 -2.9207602 170.15628
113896000 -2.9075422 169.75967 -11.04883 -11.090368 -11.013242 -10.964527 -2.9167991 170.16939
