!Agilent Technologies,E8362C,MY43020457,A.09.42.15
!Agilent E8362C: A.09.42.15
!Date: Friday, March 13, 2026 15:01:56
!Correction: S11(Full 2 Port(1,2)) 
!S21(Full 2 Port(1,2)) 
!S12(Full 2 Port(1,2)) 
!S22(Full 2 Port(1,2)) 
!S2P File: Measurements: S11, S21, S12, S22:
# Hz S  dB   R 50
10000000 -30.322433 -120.98751 -0.079203121 -1.5027332 -0.10571327 -1.5348113 -32.398266 -165.9512
10499500 -33.366356 -154.30386 -0.065474264 -1.3259618 -0.19596384 -1.7389612 -33.89529 -151.2607
10999000 -35.562477 -139.96039 -0.18840054 -1.5759029 -0.086987227 -1.493484 -32.333382 -139.37144
11498500 -33.501156 -151.62946 -0.14384502 -1.489975 -0.13816358 -1.8842759 -32.426182 -123.44147
11998000 -33.168144 -159.73633 -0.14188768 -1.9667801 -0.11945832 -1.9677246 -33.884495 -147.77493
12497500 -34.155209 -130.85219 -0.15766314 -2.1443512 -0.17249618 -1.4525138 -33.317432 -137.12517
12997000 -34.605721 -133.79083 -0.15966451 -1.7168784 -0.15629959 -1.7587842 -33.313755 -132.54718
13496500 -30.831881 -130.56497 -0.12883413 -1.6642801 -0.13827845 -2.0189464 -32.105236 -137.99638
13996000 -33.186298 -129.41582 -0.15173072 -1.8265328 -0.10832272 -2.0336151 -32.040905 -129.02611
14495500 -31.381241 -124.91302 -0.1208869 -2.170682 -0.10133039 -2.0702479 -33.034332 -129.85146
14995000 -33.064751 -138.70988 -0.13497615 -2.2391157 -0.14550711 -1.9546657 -33.086109 -134.53688
15494500 -31.957115 -143.50053 -0.11075611 -2.1283593 -0.16504399 -2.2614973 -32.213974 -130.59088
15994000 -31.165712 -130.02446 -0.14736311 -2.3831928 -0.1472546 -2.3205478 -31.983742 -125.6674
16493500 -31.474026 -129.12169 -0.13444564 -2.3377187 -0.13909194 -2.1296403 -31.345446 -129.81744
16993000 -30.562904 -126.41294 -0.13291849 -2.4087586 -0.12222409 -2.2562211 -31.589277 -131.1889
17492500 -31.047028 -128.81517 -0.14202279 -2.5882506 -0.14230549 -2.2336755 -31.19404 -127.448
17992000 -31.060831 -127.89957 -0.11829863 -2.6503494 -0.12024901 -2.4706905 -31.324322 -126.69908
18491500 -31.231146 -130.15715 -0.12081721 -2.5150864 -0.17431763 -2.4408531 -31.134472 -133.62944
18991000 -30.403023 -128.5376 -0.14815441 -2.7644603 -0.14584488 -2.6687629 -31.000282 -130.52747
19490500 -30.2197 -126.01431 -0.15505938 -2.6787019 -0.14614068 -2.6836967 -30.878283 -125.74323
19990000 -30.669863 -127.1992 -0.13955167 -2.7232583 -0.11888135 -2.7959404 -31.340479 -130.92288
20489500 -30.444735 -121.34809 -0.14673477 -2.9249218 -0.13220768 -2.736531 -29.891022 -124.90936
20989000 -30.310318 -121.75403 -0.1464866 -2.9171331 -0.14551292 -2.8160932 -30.396059 -130.70966
21488500 -30.249687 -125.09981 -0.14628577 -2.9323757 -0.14049868 -2.8884654 -30.299843 -125.25198
21988000 -29.831827 -124.20193 -0.1320463 -3.130049 -0.16352561 -2.9432967 -30.103228 -122.43993
22487500 -29.790516 -126.38699 -0.15012243 -3.132839 -0.1375334 -2.9333184 -29.849937 -124.06621
22987000 -30.249134 -119.77095 -0.14318517 -3.2298467 -0.15923777 -3.1743095 -29.776423 -124.72763
23486500 -29.419651 -124.49434 -0.1510976 -3.2549953 -0.15346324 -3.2082126 -29.48028 -122.47442
23986000 -29.150023 -123.64425 -0.14743343 -3.2724886 -0.16390696 -3.2928932 -29.345999 -125.03665
24485500 -29.676414 -124.67905 -0.15235144 -3.3971429 -0.16814645 -3.2208519 -29.481455 -124.65414
24985000 -29.205202 -121.26032 -0.14168434 -3.5264666 -0.14106947 -3.3680253 -29.779169 -123.41279
25484500 -29.505838 -123.7649 -0.13822655 -3.5359709 -0.14334187 -3.3540187 -28.779564 -121.64817
25984000 -28.955713 -123.47303 -0.13991316 -3.6940579 -0.1457843 -3.3929789 -28.999533 -122.7319
26483500 -29.2244 -122.13285 -0.13625899 -3.580338 -0.14044814 -3.6324189 -29.020491 -121.65657
26983000 -28.503368 -120.94981 -0.17108029 -3.6911445 -0.15993714 -3.6238275 -28.790323 -121.15653
27482500 -28.663376 -121.01343 -0.14599515 -3.8448851 -0.16056217 -3.6428301 -28.605431 -122.54586
27982000 -28.296001 -120.57269 -0.14138837 -3.8310144 -0.15662581 -3.7690713 -28.686611 -120.97176
28481500 -28.316656 -121.23463 -0.13264289 -3.8985538 -0.14796175 -3.9406996 -28.363035 -121.72695
28981000 -28.303038 -121.0649 -0.15620698 -4.0815411 -0.16013415 -3.8357592 -28.351446 -120.84221
29480500 -28.23208 -119.53114 -0.14327185 -4.0702338 -0.15535256 -3.9668965 -28.438938 -119.21545
29980000 -28.101852 -119.84851 -0.14430933 -4.0630817 -0.16189235 -4.0782657 -28.14609 -119.68001
30479500 -27.735023 -120.64198 -0.15349393 -4.1440973 -0.16250616 -4.1492414 -27.979952 -120.63054
30979000 -27.852919 -118.15092 -0.1507888 -4.2475352 -0.15466852 -4.1840706 -27.958326 -117.92199
31478500 -27.673792 -119.96324 -0.14853621 -4.2938089 -0.15262355 -4.1654201 -28.182964 -118.9313
31978000 -27.536022 -118.31907 -0.15442257 -4.367064 -0.15685099 -4.2773705 -27.903101 -119.58826
32477500 -27.457333 -119.39767 -0.15792128 -4.4409208 -0.16307425 -4.2393031 -27.73877 -119.48627
32977000 -27.201593 -117.36774 -0.14084046 -4.5510635 -0.16233031 -4.3804021 -27.452209 -116.81775
33476500 -27.36314 -118.05898 -0.14432389 -4.5387063 -0.15091321 -4.447288 -27.387659 -118.4377
33976000 -27.279892 -118.32771 -0.14707205 -4.6246915 -0.15975784 -4.537991 -27.351957 -118.86632
34475500 -27.033903 -117.8613 -0.14853579 -4.6952243 -0.15464854 -4.6631832 -27.008648 -118.36896
34975000 -27.11743 -116.08141 -0.14819916 -4.7010384 -0.16980137 -4.6898475 -26.992924 -116.08598
35474500 -26.992849 -117.58956 -0.14480221 -4.7800279 -0.17233649 -4.6840434 -26.957495 -117.23803
35974000 -26.860674 -116.91841 -0.1548032 -4.9356971 -0.16043824 -4.829803 -26.747507 -118.57674
36473500 -26.628328 -117.82835 -0.14756948 -4.9656959 -0.15999994 -4.8356328 -26.811583 -118.08031
36973000 -26.598045 -117.83681 -0.16023707 -5.0262084 -0.16132735 -4.9280257 -26.710583 -117.11321
37472500 -26.531836 -116.94763 -0.1519963 -5.0875506 -0.16177525 -4.9613252 -26.322201 -116.79459
37972000 -26.354343 -117.35069 -0.1555659 -5.1659822 -0.16622554 -4.9874377 -26.451418 -116.53937
38471500 -26.300669 -117.27778 -0.14790303 -5.274519 -0.1631093 -5.114656 -26.202099 -116.4641
38971000 -26.143513 -116.27905 -0.15264232 -5.2776537 -0.16138649 -5.1783838 -26.074139 -116.91112
39470500 -26.149656 -117.48326 -0.15755503 -5.390305 -0.15797482 -5.1990876 -26.119198 -116.38923
39970000 -25.965033 -116.40835 -0.16101374 -5.3909254 -0.16726868 -5.3473516 -26.135738 -116.43024
40469500 -25.909763 -116.26084 -0.15764488 -5.530652 -0.18122585 -5.3948674 -26.003891 -116.33231
40969000 -25.813177 -116.39862 -0.16064183 -5.5543809 -0.17527962 -5.3952856 -25.938139 -116.40302
41468500 -25.687109 -116.08751 -0.15496631 -5.6369081 -0.17619081 -5.5158086 -25.818399 -115.71188
41968000 -25.583252 -116.23165 -0.15264888 -5.7377896 -0.16653082 -5.6642818 -25.542082 -115.39008
42467500 -25.521317 -115.98146 -0.15561377 -5.7839651 -0.16373791 -5.7211943 -25.676777 -116.13292
42967000 -25.31633 -115.40599 -0.15260378 -5.8120947 -0.16431227 -5.7665672 -25.426928 -116.29322
43466500 -25.397984 -115.571 -0.16002277 -5.8968 -0.17073855 -5.7253108 -25.363842 -115.20017
43966000 -25.192736 -114.55781 -0.16362695 -5.9405379 -0.16548026 -5.8526249 -25.309769 -115.89754
44465500 -25.23361 -115.1629 -0.15914491 -6.0656667 -0.16172926 -5.8871217 -25.210459 -115.00497
44965000 -25.184824 -115.64813 -0.16034268 -6.0545726 -0.170509 -5.9786196 -25.066658 -115.75739
45464500 -24.729031 -115.46203 -0.1657445 -6.1124544 -0.18235071 -6.1820974 -25.099567 -114.35927
45964000 -24.852476 -114.15121 -0.16389668 -6.2403569 -0.16142184 -5.8912506 -24.923042 -116.73965
46463500 -25.2171 -118.77687 -0.16248006 -6.2054133 -0.15548779 -6.2155771 -25.014736 -116.68224
46963000 -24.693521 -115.7924 -0.15449317 -6.2019515 -0.15835872 -6.079596 -24.829945 -113.92834
47462500 -24.697363 -114.96293 -0.17276768 -6.3836031 -0.15407874 -6.4089127 -24.722178 -115.52145
47962000 -24.403557 -114.12445 -0.17113599 -6.5597987 -0.16796444 -6.4910245 -24.719765 -116.86865
48461500 -24.339903 -114.16751 -0.16484691 -6.746593 -0.22207575 -6.3996067 -24.373474 -114.03613
48961000 -24.642975 -116.30099 -0.1486184 -6.545857 -0.19705409 -6.5843906 -24.208368 -114.92065
49460500 -24.643934 -116.0914 -0.18406986 -6.6548223 -0.18112203 -6.5575523 -24.319183 -115.28867
49960000 -24.496708 -113.95404 -0.18496008 -6.641171 -0.17251971 -6.8811665 -24.271309 -115.01461
50459500 -24.087547 -114.16483 -0.17698464 -6.6476798 -0.18363856 -6.6950078 -24.531694 -116.98479
50959000 -23.86441 -115.05844 -0.18797487 -6.7590427 -0.19284604 -7.0116301 -23.937025 -113.34602
51458500 -24.003452 -116.58843 -0.17948106 -6.7572708 -0.18846276 -6.8866048 -23.977865 -116.04222
51958000 -24.199171 -115.1606 -0.17878263 -6.8762603 -0.15660371 -7.0438766 -24.453995 -114.39759
52457500 -24.292791 -113.74641 -0.16394924 -7.1087756 -0.168466 -7.0342135 -23.744184 -114.32375
52957000 -23.850254 -115.81862 -0.14921507 -6.9126654 -0.16585511 -7.0140519 -24.195995 -115.34216
53456500 -23.990322 -113.53526 -0.18206832 -7.0553155 -0.14230664 -7.2519064 -23.930584 -113.15468
53956000 -23.713625 -112.48901 -0.17349012 -7.3401823 -0.19805969 -7.3374357 -23.687414 -114.1102
54455500 -23.486847 -113.51464 -0.16744639 -7.1949248 -0.18302573 -7.3655968 -23.75034 -113.78812
54955000 -23.361788 -115.46879 -0.20264302 -7.218833 -0.1767664 -7.3065753 -23.790651 -115.99158
55454500 -23.402153 -115.41534 -0.1744293 -7.4822292 -0.19092707 -7.3168411 -23.478718 -114.23837
55954000 -23.339338 -115.0135 -0.17951974 -7.5521283 -0.18512857 -7.4909716 -23.438677 -112.03183
56453500 -23.243717 -113.48045 -0.189248 -7.4681878 -0.19663888 -7.4658008 -23.563042 -113.81136
56953000 -23.076473 -113.25705 -0.17444237 -7.5263424 -0.2107297 -7.58252 -23.218445 -113.16132
57452500 -23.2827 -115.43364 -0.17080709 -7.6348071 -0.1828953 -7.6296458 -23.174456 -114.16125
57952000 -23.242239 -114.65239 -0.19216323 -7.6742997 -0.19080228 -7.7855759 -23.240377 -113.87228
58451500 -23.204044 -114.24579 -0.17961767 -7.8297668 -0.18115494 -7.6852221 -23.23192 -112.47489
58951000 -23.39654 -114.17996 -0.18708891 -7.9154191 -0.20866188 -7.7259889 -23.10611 -115.07629
59450500 -22.936651 -114.84927 -0.17585912 -7.7526832 -0.18053184 -8.0013962 -22.917419 -114.12815
59950000 -22.588507 -113.69273 -0.18849428 -7.9955273 -0.1884055 -7.9154201 -22.976799 -114.53249
60449500 -22.701962 -114.22017 -0.17862324 -8.1311293 -0.17623475 -8.0598993 -22.805443 -113.84737
60949000 -22.390434 -114.52769 -0.19556175 -8.09548 -0.19515893 -8.1119118 -22.855097 -113.75119
61448500 -22.626045 -113.48837 -0.18589413 -8.213129 -0.18635045 -8.0444965 -22.763103 -112.34419
61948000 -22.533422 -113.37051 -0.18190268 -8.2103643 -0.19003248 -8.2406435 -22.584444 -115.10624
62447500 -22.464951 -114.42126 -0.18263403 -8.2772026 -0.17834638 -8.3671818 -22.701281 -114.59253
62947000 -22.585764 -114.17567 -0.18179338 -8.3356791 -0.17966284 -8.4489079 -22.66884 -113.52998
63446500 -22.397869 -114.02281 -0.18021542 -8.3083973 -0.19488071 -8.3948011 -22.260246 -114.11197
63946000 -22.191904 -114.78193 -0.18082672 -8.4716587 -0.18668766 -8.4009552 -22.227057 -114.19492
64445500 -22.303026 -113.97423 -0.20296797 -8.5628395 -0.1988553 -8.4530802 -22.263903 -113.00864
64945000 -22.135279 -113.32892 -0.19193894 -8.5704851 -0.19892582 -8.6625185 -22.176462 -113.63546
65444500 -22.185553 -113.4577 -0.17416246 -8.6681671 -0.17390433 -8.6518574 -22.25536 -114.09866
65944000 -22.270611 -114.21791 -0.18567556 -8.775034 -0.19071355 -8.9277382 -22.310575 -113.16382
66443500 -22.214321 -112.74399 -0.18589284 -8.7945662 -0.17767075 -8.7949905 -21.978668 -112.93674
66943000 -21.893282 -114.6601 -0.20630686 -8.766819 -0.20280187 -9.0087233 -22.238611 -113.67844
67442500 -21.886864 -111.75266 -0.18114102 -8.8725624 -0.1820844 -8.9447365 -21.940357 -114.69904
67942000 -21.898973 -113.16133 -0.2058575 -8.9581146 -0.1544071 -8.9990129 -21.98226 -114.72595
68441500 -21.894434 -113.68487 -0.19635794 -9.0137177 -0.19199993 -9.0906324 -21.828119 -113.51596
68941000 -21.769577 -113.52583 -0.21587738 -9.1397963 -0.20528226 -9.0890732 -21.611969 -114.20359
69440500 -21.783569 -114.14996 -0.19189782 -9.029871 -0.20618157 -9.3534813 -21.456779 -114.03477
69940000 -21.712677 -114.63357 -0.20686924 -9.2465544 -0.17790595 -9.2474327 -21.612528 -113.91218
70439500 -21.520546 -113.95805 -0.19712549 -9.2557011 -0.19275019 -9.296382 -21.504854 -113.88676
70939000 -21.550829 -114.31101 -0.20376556 -9.4334497 -0.18969527 -9.2806044 -21.50333 -113.29134
71438500 -21.377756 -113.08564 -0.22179776 -9.5895014 -0.20026033 -9.3850842 -21.690092 -114.83878
71938000 -21.527161 -114.18617 -0.17812195 -9.6010885 -0.20828967 -9.5648985 -21.419821 -113.06963
72437500 -21.287819 -114.56081 -0.18430662 -9.6189241 -0.1983643 -9.5675564 -21.351223 -114.10209
72937000 -21.185688 -114.53052 -0.20115654 -9.7501965 -0.20616949 -9.5780249 -21.398201 -113.9389
73436500 -21.167778 -114.38043 -0.18439347 -9.719861 -0.22165996 -9.6225214 -21.219172 -114.12194
73936000 -21.270866 -113.86618 -0.198566 -9.6613731 -0.20357245 -9.7235899 -21.151609 -112.83463
74435500 -21.239183 -114.83324 -0.20528771 -9.825717 -0.20284677 -9.8918419 -21.095802 -112.73254
74935000 -21.04755 -114.7095 -0.19503559 -9.7961493 -0.20862113 -9.7711878 -21.204308 -114.09449
75434500 -20.979965 -114.20713 -0.18867779 -9.9684734 -0.22303489 -9.9455175 -21.196827 -113.04755
75934000 -20.970417 -114.87724 -0.19008765 -9.9815664 -0.21669799 -9.9485531 -21.099546 -113.86816
76433500 -20.973789 -114.40398 -0.20419188 -10.06038 -0.22061461 -10.006736 -20.864351 -114.69063
76933000 -20.834358 -114.01909 -0.19745962 -10.171847 -0.22023906 -10.096975 -20.900133 -113.78393
77432500 -20.753576 -114.27777 -0.20473102 -10.253257 -0.20227702 -10.219747 -20.82564 -114.34813
77932000 -20.649422 -115.07742 -0.20966555 -10.272285 -0.21637692 -10.186989 -20.848969 -114.34982
78431500 -20.577694 -114.16791 -0.21752055 -10.417706 -0.22717561 -10.321336 -20.700716 -113.83733
78931000 -20.564774 -114.36941 -0.22542861 -10.424628 -0.23123448 -10.46977 -20.615685 -114.1357
79430500 -20.678795 -115.51783 -0.21092086 -10.310698 -0.21247394 -10.532292 -20.628244 -113.67102
79930000 -20.589584 -114.79527 -0.2139208 -10.418785 -0.21839891 -10.537236 -20.511276 -113.44978
80429500 -20.709208 -114.69087 -0.22156475 -10.622308 -0.19411531 -10.562087 -20.620651 -113.93926
80929000 -20.481676 -114.36256 -0.20902297 -10.789998 -0.20851609 -10.671034 -20.520729 -115.26035
81428500 -20.317305 -114.67432 -0.20711814 -10.746863 -0.20753008 -10.660777 -20.350149 -113.28281
81928000 -20.365803 -115.04645 -0.20793733 -10.774219 -0.21585466 -10.88605 -20.308855 -114.41843
82427500 -20.315258 -115.26641 -0.21927394 -10.848893 -0.22335121 -10.749718 -20.345079 -114.03603
82927000 -20.370913 -114.07574 -0.20555559 -10.882291 -0.2066059 -10.885781 -20.364439 -114.03628
83426500 -20.240763 -115.05011 -0.20646742 -10.952587 -0.21556723 -10.92945 -20.272532 -114.73558
83926000 -20.088882 -114.6534 -0.22123092 -10.922879 -0.21909291 -10.923348 -20.181799 -113.62456
84425500 -20.092596 -114.67333 -0.22330776 -11.030693 -0.22812007 -11.0246 -20.262135 -114.53421
84925000 -20.141207 -114.55811 -0.19943003 -11.188481 -0.22890775 -11.215498 -20.008299 -114.38991
85424500 -20.049055 -114.31968 -0.22119789 -11.258641 -0.23630708 -11.259638 -20.127502 -114.54178
85924000 -19.988865 -115.75769 -0.21348421 -11.405869 -0.21771471 -11.158149 -19.934885 -113.70612
86423500 -19.885183 -115.15274 -0.2179953 -11.413255 -0.21745475 -11.372433 -19.859055 -114.75558
86923000 -19.926868 -114.57578 -0.21361575 -11.3836 -0.21640067 -11.4872 -19.901844 -114.31191
87422500 -19.807358 -115.38497 -0.23154096 -11.486762 -0.23502538 -11.465056 -19.837219 -114.00034
87922000 -19.844936 -114.61401 -0.22866909 -11.564411 -0.21613739 -11.531928 -19.692587 -114.66378
88421500 -19.79467 -115.23927 -0.22963096 -11.603897 -0.22735637 -11.61003 -19.746342 -114.78659
88921000 -19.696829 -115.11175 -0.22951698 -11.710955 -0.22906664 -11.658089 -19.780544 -114.92299
89420500 -19.719063 -115.15627 -0.22322814 -11.717847 -0.23021804 -11.917244 -19.609594 -114.76373
89920000 -19.571005 -115.53613 -0.23727584 -11.860677 -0.22154614 -11.767814 -19.706509 -114.74928
90419500 -19.576218 -115.1516 -0.22632965 -11.885818 -0.2287571 -11.8753 -19.526463 -114.35374
90919000 -19.56918 -114.8578 -0.23131558 -11.918707 -0.24011825 -11.916363 -19.634686 -113.99089
91418500 -19.523123 -115.60275 -0.22864801 -12.00995 -0.24845774 -12.120541 -19.508226 -114.62617
91918000 -19.387779 -115.10321 -0.23649348 -12.013834 -0.21720576 -12.112 -19.483269 -114.825
92417500 -19.321993 -115.37665 -0.22267872 -12.123358 -0.24153426 -12.212266 -19.454157 -115.01254
92917000 -19.31732 -115.08481 -0.24081469 -12.164474 -0.22731009 -12.140929 -19.330469 -115.4429
93416500 -19.284945 -114.74169 -0.23111403 -12.277051 -0.24683701 -12.313879 -19.298365 -115.26104
93916000 -19.218267 -115.90302 -0.22238109 -12.309101 -0.25207546 -12.310703 -19.223518 -114.86835
94415500 -19.195101 -115.16707 -0.23679426 -12.367352 -0.24117607 -12.422366 -19.204279 -114.01145
94915000 -19.134037 -115.80004 -0.24038814 -12.466156 -0.24166989 -12.495335 -19.112114 -114.90436
95414500 -19.171806 -116.0321 -0.23508239 -12.542607 -0.22862646 -12.484461 -19.236517 -114.94927
95914000 -19.048189 -115.60774 -0.22938766 -12.561482 -0.2593697 -12.53798 -19.042845 -114.57899
96413500 -19.028334 -115.36429 -0.23456065 -12.653481 -0.22868551 -12.605455 -19.013802 -114.74684
96913000 -18.997156 -115.7991 -0.24169673 -12.745259 -0.23596804 -12.645765 -19.010841 -114.92919
97412500 -18.916405 -115.61315 -0.23530297 -12.833096 -0.25241399 -12.724277 -18.992382 -115.19191
97912000 -18.886507 -116.00717 -0.23181953 -12.746243 -0.25882834 -12.814567 -18.937294 -115.43113
98411500 -18.841606 -115.35399 -0.24101152 -12.948332 -0.23785783 -12.877247 -18.878885 -115.65501
98911000 -18.884146 -114.92722 -0.2332388 -12.989498 -0.23711021 -12.931619 -18.980526 -115.16454
99410500 -18.856277 -115.50202 -0.2338821 -12.981215 -0.24611221 -12.986311 -18.817928 -115.06321
99910000 -18.653755 -115.84351 -0.24903747 -13.008703 -0.23469649 -13.100523 -18.802383 -115.34815
100409500 -18.721291 -115.65775 -0.24131747 -13.143393 -0.26149452 -13.137304 -18.768759 -115.48695
100909000 -18.674353 -116.43333 -0.2503787 -13.182567 -0.24545504 -13.205178 -18.751915 -115.85706
101408500 -18.69923 -115.86176 -0.2327221 -13.327847 -0.24378666 -13.319243 -18.646828 -115.19457
101908000 -18.514511 -115.87942 -0.24026197 -13.353002 -0.25428188 -13.29845 -18.577051 -115.26521
102407500 -18.455765 -115.66193 -0.24038866 -13.489056 -0.24665588 -13.326382 -18.535076 -115.94012
102907000 -18.523069 -116.15383 -0.25261429 -13.524004 -0.24984694 -13.458406 -18.548189 -115.94607
103406500 -18.445068 -115.87449 -0.24302168 -13.593169 -0.23980583 -13.515291 -18.474693 -115.73975
103906000 -18.460772 -116.73863 -0.24822035 -13.590865 -0.26389635 -13.492943 -18.473055 -115.71383
104405500 -18.335192 -115.8268 -0.24871144 -13.612101 -0.25729021 -13.510182 -18.452988 -115.94403
104905000 -18.357239 -116.42103 -0.23157328 -13.767459 -0.24748595 -13.684307 -18.271231 -115.87447
105404500 -18.303455 -116.39495 -0.2492228 -13.789525 -0.25372103 -13.880265 -18.29108 -116.04522
105904000 -18.310181 -116.50503 -0.25966075 -13.817044 -0.25550139 -13.890948 -18.314495 -116.14981
106403500 -18.230038 -116.68205 -0.24483058 -13.909904 -0.25232142 -13.942636 -18.300026 -115.82313
106903000 -18.255754 -116.4659 -0.25009599 -14.007474 -0.25088641 -13.968554 -18.120838 -115.81288
107402500 -18.166828 -116.77992 -0.25862452 -14.073399 -0.25481364 -14.133883 -18.159435 -115.55624
107902000 -18.094349 -116.88348 -0.24019791 -14.126669 -0.25004837 -14.049852 -18.080366 -116.66093
108401500 -18.030825 -116.75716 -0.23466399 -14.199532 -0.24936281 -14.197486 -18.083475 -116.02515
108901000 -18.030678 -116.72736 -0.25408909 -14.230419 -0.25060043 -14.16245 -18.039408 -116.39843
109400500 -17.988775 -116.87375 -0.25858465 -14.222643 -0.25433078 -14.368802 -18.04921 -115.93253
