!Agilent Technologies,E8362C,MY43020457,A.09.42.15
!Agilent E8362C: A.09.42.15
!Date: Friday, March 13, 2026 15:23:14
!Correction: S11(Full 2 Port(1,2)) 
!S21(Full 2 Port(1,2)) 
!S12(Full 2 Port(1,2)) 
!S22(Full 2 Port(1,2)) 
!S2P File: Measurements: S11, S21, S12, S22:
# Hz S  dB   R 50
10000000 -3.4806755 179.34027 -9.652154 -2.0456085 -9.5622816 -2.883414 -3.440182 -179.67099
10499500 -3.3379278 179.81938 -9.6000652 -1.2123458 -9.6043987 -2.0122423 -3.4900322 -179.87338
10999000 -3.4934177 179.45218 -9.7136307 -4.0712709 -9.6350727 -3.7540257 -3.302186 179.52097
11498500 -3.4816136 179.75105 -9.7261229 -2.5073354 -9.6283484 -2.7170899 -3.497174 -179.85056
11998000 -3.4131064 179.47557 -9.7501726 -2.0254338 -9.6892748 -2.7819118 -3.4351203 -179.7838
12497500 -3.3972623 179.93286 -9.6701126 -3.1290338 -9.6776686 -2.6429429 -3.4487169 179.60611
12997000 -3.4291184 179.2339 -9.7905273 -2.2710879 -9.7004461 -2.4566789 -3.4202995 179.66438
13496500 -3.4264543 179.68553 -9.6801319 -2.6079438 -9.7559357 -2.6513438 -3.4174724 179.55124
13996000 -3.4599609 179.02722 -9.7784758 -2.8238902 -9.7326193 -3.4895999 -3.4074535 179.34758
14495500 -3.4205554 179.43463 -9.710722 -1.98097 -9.7483501 -2.8180699 -3.4420879 179.52441
14995000 -3.4058008 178.98476 -9.766983 -3.5592809 -9.6977692 -2.7386591 -3.4226842 179.55597
15494500 -3.4293168 179.10399 -9.7877111 -3.3354857 -9.7315388 -3.0990753 -3.4182196 179.52913
15994000 -3.4118631 179.13937 -9.7220898 -3.0783288 -9.7423306 -2.9045682 -3.4565575 179.26021
16493500 -3.4462004 179.33852 -9.7128744 -2.8642511 -9.7899923 -2.6734304 -3.4050395 179.1622
16993000 -3.4164052 178.88701 -9.7258587 -3.043133 -9.7061701 -3.1801724 -3.4477501 179.33537
17492500 -3.4204233 179.1857 -9.6754694 -3.0478201 -9.8257437 -2.9079268 -3.3998036 179.06308
17992000 -3.4134264 178.97556 -9.7646933 -3.483686 -9.6730099 -3.1337008 -3.448575 179.05179
18491500 -3.4291289 178.96521 -9.7755451 -2.6966107 -9.7619934 -2.7582016 -3.4290698 179.00908
18991000 -3.4415777 178.91365 -9.8005381 -3.1261055 -9.7212324 -3.2912095 -3.4053676 178.95131
19490500 -3.4166105 178.8035 -9.7777214 -3.0249081 -9.7434788 -2.9053028 -3.4387879 178.82135
19990000 -3.4006188 178.8351 -9.7539911 -3.0209303 -9.7704086 -3.1463492 -3.4266524 178.97726
20489500 -3.4287963 178.83884 -9.7584896 -2.7837181 -9.7577448 -3.0671282 -3.4068184 178.74669
20989000 -3.4368122 178.72046 -9.7140398 -3.2266297 -9.7738485 -2.9873312 -3.4224632 178.73312
21488500 -3.4152849 178.63367 -9.7457018 -3.2956018 -9.7295303 -3.148334 -3.4202712 178.80183
21988000 -3.4095864 178.65149 -9.765626 -3.1875796 -9.774828 -3.034045 -3.4029613 178.67987
22487500 -3.4147685 178.60928 -9.7921486 -3.2873826 -9.7511339 -3.0297828 -3.4132895 178.67554
22987000 -3.4283907 178.64302 -9.7712336 -3.6904302 -9.776598 -3.5110006 -3.4067516 178.46791
23486500 -3.4120164 178.48209 -9.7922964 -3.1998429 -9.8090916 -3.2235806 -3.3966725 178.41196
23986000 -3.4069717 178.39084 -9.7466269 -3.3505843 -9.7833414 -3.250247 -3.3914146 178.43837
24485500 -3.4111097 178.46135 -9.7605953 -3.3921642 -9.8109198 -3.3187435 -3.4067018 178.43057
24985000 -3.4258168 178.32048 -9.7726688 -3.4562407 -9.7991943 -3.442239 -3.4122145 178.21838
25484500 -3.4114544 178.21678 -9.7678633 -3.6571074 -9.7732391 -3.4369237 -3.4245794 178.29077
25984000 -3.3896236 178.24825 -9.7656088 -3.6457338 -9.7844362 -3.4516478 -3.4133875 178.29317
26483500 -3.4022789 178.19841 -9.7694483 -3.6359355 -9.773077 -3.6991968 -3.4064929 178.13557
26983000 -3.4071281 178.12372 -9.7781401 -3.5141423 -9.8263788 -3.7785225 -3.4006987 178.19194
27482500 -3.398036 177.98804 -9.7932596 -3.7998865 -9.7949247 -3.6443858 -3.4082859 178.06288
27982000 -3.390053 178.04184 -9.7902632 -3.7269187 -9.798008 -3.8663111 -3.4028311 178.05159
28481500 -3.4091401 177.89122 -9.7671995 -3.8460822 -9.7847214 -3.9045365 -3.3923256 177.97891
28981000 -3.4008477 177.92287 -9.7894058 -3.9542971 -9.8010778 -3.7484074 -3.389354 178.01859
29480500 -3.3997617 177.92787 -9.7907019 -3.7703114 -9.7765818 -3.924427 -3.4134173 177.925
29980000 -3.3936434 177.87038 -9.7792854 -3.9763145 -9.7916002 -3.9056816 -3.406559 177.85794
30479500 -3.3960655 177.72285 -9.7957373 -3.9925885 -9.8156395 -3.9274292 -3.4099026 177.86543
30979000 -3.4008641 177.83742 -9.8107576 -3.9685731 -9.7806616 -3.876416 -3.4048147 177.85542
31478500 -3.3929994 177.72713 -9.7802124 -4.0586677 -9.7646055 -4.0387821 -3.41308 177.73979
31978000 -3.3976386 177.5083 -9.7938118 -4.0401592 -9.7857761 -4.0138755 -3.4019089 177.65303
32477500 -3.3966789 177.56833 -9.7850313 -4.2265401 -9.7910156 -4.0674734 -3.4089656 177.70268
32977000 -3.3977053 177.63622 -9.7729292 -4.1596346 -9.7926807 -4.0289974 -3.3986146 177.49353
33476500 -3.3995523 177.37923 -9.7755709 -4.2247844 -9.808548 -4.1748543 -3.4049649 177.58286
33976000 -3.3854764 177.45175 -9.7930851 -4.2943749 -9.7844858 -4.1756458 -3.4113092 177.53485
34475500 -3.401968 177.36389 -9.7866831 -4.2799511 -9.7975044 -4.2397614 -3.4094222 177.52734
34975000 -3.3905823 177.32903 -9.7904081 -4.3593493 -9.8276415 -4.2093716 -3.4036741 177.39696
35474500 -3.3925955 177.32584 -9.7816305 -4.2983232 -9.8182955 -4.2750826 -3.4062591 177.36127
35974000 -3.3946984 177.25948 -9.7747955 -4.4139853 -9.7993307 -4.3946471 -3.398957 177.35287
36473500 -3.386306 177.17288 -9.7985182 -4.4864149 -9.7965364 -4.3704572 -3.3925829 177.26555
36973000 -3.387013 177.11784 -9.8361902 -4.5709414 -9.8106651 -4.4136229 -3.399658 177.30426
37472500 -3.3872266 177.12518 -9.8221111 -4.5077443 -9.7990131 -4.4640608 -3.3840322 177.25496
37972000 -3.3848646 177.06915 -9.8088131 -4.5481758 -9.8169203 -4.4438019 -3.3945749 177.11923
38471500 -3.386838 176.94757 -9.7859726 -4.5864835 -9.8105183 -4.654213 -3.3982272 177.15968
38971000 -3.4046783 176.95648 -9.8061237 -4.7152629 -9.80375 -4.5835853 -3.384331 177.04137
39470500 -3.3863997 176.90605 -9.8242311 -4.7927938 -9.8048 -4.8205223 -3.3951077 177.01683
39970000 -3.3791926 176.9646 -9.8306265 -4.770431 -9.7981205 -4.6320577 -3.3958943 176.95407
40469500 -3.3827538 176.86784 -9.7978048 -4.801713 -9.8163719 -4.8348799 -3.4006693 176.9613
40969000 -3.3813028 176.77513 -9.8105927 -4.8369761 -9.8196268 -4.8374939 -3.3985448 176.87973
41468500 -3.3879752 176.72881 -9.8279495 -4.9262218 -9.8276958 -4.8424411 -3.4010136 176.84663
41968000 -3.3802407 176.68875 -9.8370266 -4.9887214 -9.8294764 -4.9767241 -3.4004519 176.76231
42467500 -3.3828502 176.63544 -9.8291502 -5.0701928 -9.8188572 -4.936996 -3.3923948 176.70439
42967000 -3.3860066 176.63675 -9.8225937 -4.934546 -9.8019781 -5.0080943 -3.387948 176.66168
43466500 -3.3807831 176.62486 -9.8183994 -4.9781108 -9.8259602 -5.0408669 -3.3848636 176.64816
43966000 -3.3784585 176.52988 -9.8365765 -5.1356592 -9.8264189 -5.1048865 -3.3960481 176.64572
44465500 -3.3773916 176.45108 -9.8209877 -5.1337724 -9.8341427 -5.1219444 -3.3846934 176.59593
44965000 -3.3769817 176.39308 -9.8212109 -5.2070475 -9.8254404 -5.1982145 -3.3827672 176.4953
45464500 -3.4042513 176.23851 -9.8564377 -5.3522644 -9.8653107 -5.0593944 -3.3286262 176.60048
45964000 -3.3993165 176.14189 -9.822876 -5.7390184 -9.8206987 -5.4132576 -3.3913662 176.34277
46463500 -3.4015715 176.1685 -9.8523064 -5.0320258 -9.8026009 -5.1168313 -3.4022462 176.49553
46963000 -3.3853557 175.9912 -9.9196692 -4.8525996 -9.844264 -5.5381708 -3.3819673 176.27707
47462500 -3.3894427 176.13109 -9.7947369 -5.4992743 -9.8968468 -5.1892376 -3.3751411 176.18918
47962000 -3.3867145 175.97354 -9.8945293 -5.560307 -9.8560886 -5.5042086 -3.4229417 176.35574
48461500 -3.3896749 176.05504 -9.8908548 -5.9302492 -9.8660078 -5.4563951 -3.3984139 176.1451
48961000 -3.4048772 176.03291 -9.813242 -5.8497424 -9.8801184 -5.4604931 -3.3782949 176.15593
49460500 -3.4076862 175.96844 -9.8811922 -5.5530291 -9.8586922 -5.5583978 -3.3839436 175.99771
49960000 -3.37918 176.01486 -9.8485518 -5.3524098 -9.8773336 -5.6799006 -3.4154611 176.06699
50459500 -3.379488 175.92859 -9.8742723 -5.98944 -9.8764534 -5.5221238 -3.4260316 175.98318
50959000 -3.3669949 175.67349 -9.8377762 -5.4377322 -9.8674145 -5.6616817 -3.4053204 175.93398
51458500 -3.3804717 175.81505 -9.7895145 -5.6597347 -9.8811207 -5.4253416 -3.4148858 175.98882
51958000 -3.3805575 175.83888 -9.8849583 -5.7206116 -9.8641319 -6.1556802 -3.3921082 175.8929
52457500 -3.4086504 175.76511 -9.8432522 -6.108407 -9.8614836 -5.4967742 -3.3637898 175.8226
52957000 -3.4033022 175.66922 -9.8350344 -5.8791308 -9.8306313 -6.1731143 -3.3655491 175.54413
53456500 -3.3863513 175.7261 -9.8730545 -5.7926135 -9.8341303 -5.9013624 -3.4075119 175.62601
53956000 -3.3742886 175.48915 -9.8972759 -5.8971791 -9.8397827 -5.6923966 -3.4161465 175.6662
54455500 -3.378962 175.49655 -9.808032 -6.1397324 -9.8511 -5.9582314 -3.4132268 175.45441
54955000 -3.3869903 175.40392 -9.8760214 -6.0827398 -9.8662624 -6.2372336 -3.3719628 175.83328
55454500 -3.3847327 175.46503 -9.8646765 -6.3873115 -9.8748255 -5.6675987 -3.4024239 175.42091
55954000 -3.354779 175.16165 -9.8873634 -6.1998577 -9.8638353 -6.1470981 -3.3961763 175.41951
56453500 -3.3739407 175.175 -9.903882 -6.0442762 -9.8741636 -6.1000996 -3.3985436 175.32639
56953000 -3.3653839 175.06419 -9.8321486 -6.1746435 -9.8474331 -6.2325325 -3.3959343 175.36331
57452500 -3.3919671 175.05441 -9.8293133 -6.2397609 -9.8869038 -6.094389 -3.3958735 175.48003
57952000 -3.3983619 175.11497 -9.8577862 -5.9582295 -9.8510666 -6.3464756 -3.3798578 175.46584
58451500 -3.3923533 175.2018 -9.8801222 -6.4488053 -9.8294802 -6.2114267 -3.4092977 175.38991
58951000 -3.4183857 175.06511 -9.8812284 -6.5217466 -9.8766088 -6.2130861 -3.390223 175.42232
59450500 -3.3770518 174.82649 -9.8887434 -6.1246595 -9.9441471 -6.2526975 -3.3823409 175.2831
59950000 -3.400146 175.01518 -9.8910751 -6.1871791 -9.8700008 -6.0174594 -3.3706298 175.14503
60449500 -3.3885338 175.04214 -9.9177179 -6.2613707 -9.8529196 -6.393786 -3.3912377 175.0528
60949000 -3.3739011 174.77209 -9.8858938 -6.5225105 -9.8853397 -6.3282242 -3.3912761 175.02019
61448500 -3.3734779 174.89523 -9.8306818 -6.6752944 -9.8463316 -6.4380317 -3.4032598 175.13853
61948000 -3.3515928 174.76505 -9.9127951 -6.7003422 -9.8986921 -6.5290494 -3.3889754 174.90904
62447500 -3.4001343 174.76772 -9.8944044 -6.4309263 -9.9264164 -6.6383305 -3.3875499 174.914
62947000 -3.3881528 174.56296 -9.8643513 -6.6162591 -9.8577652 -6.5789695 -3.404325 175.02452
63446500 -3.3761082 174.67006 -9.8684378 -6.529376 -9.9115601 -6.2924728 -3.4069612 175.0018
63946000 -3.3824041 174.27188 -9.8737688 -6.6704082 -9.8937292 -6.9304471 -3.3699632 174.78079
64445500 -3.3709693 174.56943 -9.8856831 -6.6424747 -9.8685198 -6.7863183 -3.3873262 174.66599
64945000 -3.3837497 174.60074 -9.8939934 -6.8093362 -9.9177647 -6.7319436 -3.3660121 174.79097
65444500 -3.3941994 174.52139 -9.8696623 -6.728632 -9.850234 -6.758595 -3.3999319 174.69296
65944000 -3.3787823 174.33348 -9.8995142 -6.8849893 -9.8445778 -7.1080246 -3.4257874 174.55321
66443500 -3.3855159 174.42842 -9.8886976 -7.0120435 -9.8740196 -6.8031216 -3.3798163 174.65613
66943000 -3.3872724 174.26505 -9.8710203 -6.9105096 -9.8938541 -6.8424315 -3.387563 174.58582
67442500 -3.3541708 174.25195 -9.9220886 -6.9298291 -9.842227 -6.8626113 -3.407665 174.6311
67942000 -3.3551276 174.2533 -9.8627939 -7.1116605 -9.8282804 -7.3931255 -3.3838203 174.46039
68441500 -3.4003375 174.06781 -9.8858776 -6.9942594 -9.8807936 -7.1234131 -3.3733647 174.41895
68941000 -3.3836699 174.28589 -9.8969498 -7.2614174 -9.8996782 -6.9144239 -3.3885815 174.3325
69440500 -3.3775423 174.17439 -9.8680182 -6.8034496 -9.8730135 -7.1489348 -3.4075401 174.25343
69940000 -3.382839 173.79803 -9.9515505 -7.0696354 -9.8526726 -6.9800835 -3.3876967 174.37268
70439500 -3.3597777 173.98993 -9.9073229 -7.109395 -9.8706379 -7.4226475 -3.3911307 174.29543
70939000 -3.3543389 173.9507 -9.8543558 -7.3673358 -9.8483133 -7.0456815 -3.3724988 174.17349
71438500 -3.3749294 173.80063 -9.9288225 -7.1205506 -9.8735228 -7.3690529 -3.393132 173.9646
71938000 -3.3743641 173.95921 -9.8405781 -7.1230941 -9.9088163 -7.3255033 -3.3794305 174.1924
72437500 -3.3889751 173.8051 -9.8779116 -7.1623268 -9.9100914 -7.3316565 -3.3815672 174.0325
72937000 -3.3781085 173.76608 -9.9026718 -7.4918809 -9.8746977 -7.7162285 -3.406136 174.09207
73436500 -3.3591394 173.77005 -9.8767166 -7.7279058 -9.9121075 -7.0928936 -3.357542 174.11353
73936000 -3.398814 173.73286 -9.8765707 -7.5449815 -9.8336773 -7.294035 -3.3709962 173.8611
74435500 -3.3839979 173.68539 -9.8755121 -7.3808126 -9.9004679 -7.6505165 -3.3972316 173.88576
74935000 -3.3911517 173.56332 -9.8678493 -7.5272255 -9.868701 -7.459219 -3.3779607 173.85793
75434500 -3.3777659 173.51758 -9.9069653 -7.5696616 -9.8900108 -7.3210201 -3.3965309 173.60101
75934000 -3.3773618 173.5004 -9.8711815 -7.5931673 -9.8965197 -7.6547341 -3.3956878 173.78276
76433500 -3.3731899 173.35188 -9.927866 -7.6619382 -9.8510647 -7.6083612 -3.3857839 173.77979
76933000 -3.3640804 173.43553 -9.8614225 -7.5149541 -9.9117203 -7.7824502 -3.4013052 173.83432
77432500 -3.3869452 173.46219 -9.9164867 -7.6108246 -9.8784094 -7.7541037 -3.3828342 173.58475
77932000 -3.3653805 173.18565 -9.911829 -7.5708065 -9.9291143 -7.7760954 -3.3670702 173.55435
78431500 -3.3860958 173.2818 -9.8975439 -7.6909075 -9.8951941 -7.8836308 -3.378165 173.57497
78931000 -3.3647878 173.26062 -9.8842621 -7.8288527 -9.8482285 -7.7422729 -3.392869 173.52071
79430500 -3.3690376 173.14357 -9.8861094 -7.8398013 -9.9152193 -8.0944405 -3.3927391 173.58238
79930000 -3.3771596 173.12622 -9.8799124 -7.9021225 -9.8903971 -7.9521966 -3.3900559 173.46179
80429500 -3.3896804 173.14604 -9.904439 -8.2478313 -9.8530989 -8.1665926 -3.3908632 173.42213
80929000 -3.382355 173.00922 -9.8770685 -7.9295039 -9.8687391 -8.0475855 -3.3982706 173.24382
81428500 -3.3710053 173.02695 -9.9117403 -7.9898248 -9.891634 -8.1061506 -3.3884726 173.20517
81928000 -3.3678606 172.96838 -9.839118 -7.9516559 -9.8822823 -7.9793687 -3.3787284 173.16638
82427500 -3.3818238 172.87599 -9.8773451 -8.2087746 -9.8742447 -8.1842775 -3.3659086 173.26277
82927000 -3.3844306 172.90283 -9.877327 -8.2831306 -9.8529501 -8.1851425 -3.4020944 173.21855
83426500 -3.3793898 172.91551 -9.8798027 -8.188921 -9.8417053 -8.2990274 -3.3964121 173.00623
83926000 -3.3743322 172.70364 -9.8453484 -8.2424841 -9.8688154 -8.2348499 -3.392189 173.11397
84425500 -3.3808112 172.60579 -9.8968563 -8.3359509 -9.8756866 -8.3481588 -3.4014885 172.95674
84925000 -3.3847291 172.66718 -9.8389673 -8.376174 -9.8853893 -8.2663908 -3.3845909 173.0378
85424500 -3.3723569 172.62318 -9.9024086 -8.3863697 -9.8828278 -8.2329969 -3.40135 172.84573
85924000 -3.3800745 172.765 -9.9071093 -8.4073019 -9.8741417 -8.2494154 -3.403825 172.97772
86423500 -3.3837302 172.5201 -9.8872766 -8.5299711 -9.879117 -8.5231562 -3.3964562 172.855
86923000 -3.3914661 172.49362 -9.9135504 -8.2977648 -9.8768301 -8.6216564 -3.3891072 172.81288
87422500 -3.3762062 172.41154 -9.8979282 -8.5231543 -9.893014 -8.7641068 -3.4089966 172.72838
87922000 -3.379427 172.30467 -9.8761911 -8.8061285 -9.8889198 -8.6088057 -3.3870099 172.73769
88421500 -3.3568759 172.50031 -9.8987846 -8.641407 -9.8731384 -8.4363689 -3.3994362 172.78883
88921000 -3.3849692 172.33391 -9.8854351 -8.7478533 -9.878933 -8.7423239 -3.3805645 172.66876
89420500 -3.3709722 172.13792 -9.8750925 -8.6854115 -9.8849001 -8.8825035 -3.3848581 172.58725
89920000 -3.3763921 172.27061 -9.8674526 -8.9059839 -9.8706341 -8.8533888 -3.381974 172.43584
90419500 -3.3911784 172.14388 -9.8974581 -8.9504862 -9.8938742 -8.9180794 -3.3891671 172.50209
90919000 -3.3964441 171.98604 -9.9015198 -9.1464052 -9.8997717 -8.9384079 -3.3932908 172.43103
91418500 -3.37551 172.0027 -9.8933792 -9.0004225 -9.8955154 -8.9549208 -3.389257 172.52856
91918000 -3.3668129 172.0154 -9.9200172 -8.9486885 -9.8882637 -9.0407419 -3.3842847 172.41945
92417500 -3.3707037 172.08125 -9.8802786 -9.2240696 -9.89785 -9.2012854 -3.3914752 172.36258
92917000 -3.3654854 172.07423 -9.8959808 -9.0851164 -9.8986197 -9.1352043 -3.3930876 172.26814
93416500 -3.3761344 171.85387 -9.8828325 -9.0774775 -9.8910227 -9.1236267 -3.3871229 172.26663
93916000 -3.374675 171.81412 -9.8715525 -9.2881289 -9.9123621 -9.0396528 -3.3815026 172.2245
94415500 -3.3780167 171.85223 -9.8790083 -9.0852594 -9.9228745 -9.1278667 -3.3888535 172.19
94915000 -3.3815095 171.85414 -9.8834639 -9.1159859 -9.9097948 -9.2079172 -3.3826871 172.08752
95414500 -3.3863025 171.6692 -9.9125414 -9.1958246 -9.9093485 -9.2279301 -3.3895168 171.99907
95914000 -3.3739941 171.63568 -9.8817453 -9.4127922 -9.9461517 -9.2795897 -3.4067602 172.00076
96413500 -3.3733952 171.59613 -9.8911562 -9.3043985 -9.8896093 -9.3840208 -3.3870885 171.91388
96913000 -3.3771737 171.59789 -9.8701677 -9.5764303 -9.9177046 -9.7201262 -3.3828375 171.97804
97412500 -3.3716443 171.48282 -9.9085569 -9.4727135 -9.9173946 -9.4551172 -3.383564 171.89914
97912000 -3.378762 171.53996 -9.8977747 -9.3128405 -9.8991032 -9.522727 -3.3840272 171.91727
98411500 -3.375071 171.49631 -9.9085703 -9.6917124 -9.8841314 -9.7747107 -3.3974636 171.92195
98911000 -3.3900912 171.46535 -9.9159422 -9.6672621 -9.8759394 -9.805645 -3.4006553 171.81447
99410500 -3.3824434 171.23705 -9.8923874 -9.8360043 -9.893465 -9.6477423 -3.3814285 171.66122
99910000 -3.3676877 171.31334 -9.9145794 -9.6931591 -9.8854475 -9.7841864 -3.3975117 171.70245
100409500 -3.3844163 171.26991 -9.8699598 -9.600955 -9.9027891 -9.6913996 -3.3878081 171.53529
100909000 -3.3761945 171.21507 -9.9050846 -9.8750257 -9.8726721 -9.8813686 -3.3984976 171.5658
101408500 -3.3787932 171.14748 -9.9026127 -9.8401337 -9.9159842 -9.8557196 -3.4007773 171.54492
101908000 -3.3791111 171.04659 -9.9172316 -9.8499527 -9.9167767 -9.9896221 -3.3787553 171.51338
102407500 -3.3777916 171.06546 -9.9224176 -9.8197422 -9.8968706 -9.8603792 -3.3920672 171.48705
102907000 -3.375442 171.04793 -9.9404488 -9.9124355 -9.8756742 -10.110329 -3.4032032 171.3295
103406500 -3.3758054 170.91599 -9.8972788 -10.079229 -9.905962 -10.033718 -3.3972399 171.51271
103906000 -3.3773813 170.94841 -9.8740282 -10.053365 -9.887949 -10.108583 -3.389714 171.31013
104405500 -3.3690028 170.81854 -9.9073296 -10.229099 -9.9089575 -9.975502 -3.3941433 171.29372
104905000 -3.3901203 170.8629 -9.9122162 -10.165524 -9.9262238 -10.212234 -3.389467 171.26271
105404500 -3.3614507 170.66998 -9.9100742 -10.153297 -9.9119549 -10.291905 -3.3959165 171.22809
105904000 -3.3735411 170.75945 -9.8930187 -10.290112 -9.9157486 -10.32343 -3.3839457 171.13731
106403500 -3.3846815 170.70769 -9.8965721 -10.479731 -9.9009361 -10.393216 -3.3886468 171.11539
106903000 -3.3851252 170.60693 -9.9215307 -10.414378 -9.9261456 -10.353521 -3.3851402 171.2077
107402500 -3.3830035 170.67224 -9.9013624 -10.567026 -9.9185038 -10.474611 -3.3996415 171.04568
107902000 -3.394969 170.55215 -9.8926935 -10.614169 -9.9103374 -10.322316 -3.3940079 171.00642
108401500 -3.3875375 170.55856 -9.9261894 -10.72029 -9.9450417 -10.546906 -3.3924479 170.89328
108901000 -3.3796651 170.44019 -9.8877535 -10.632397 -9.9149065 -10.508436 -3.3761458 170.89706
109400500 -3.3824821 170.40558 -9.9291363 -10.443325 -9.9601307 -10.822013 -3.3872373 170.87103
109900000 -3.3693261 170.4393 -9.9046583 -10.685562 -9.891386 -10.659549 -3.382854 170.75926
110399500 -3.381078 170.40343 -9.8987789 -10.660113 -9.8890743 -10.773764 -3.399662 170.8065
110899000 -3.3827169 170.36415 -9.9288778 -10.593609 -9.919116 -10.865782 -3.3924854 170.86395
111398500 -3.3837938 170.30179 -9.8972044 -10.817507 -9.8929882 -10.812094 -3.3939378 170.69272
111898000 -3.376756 170.2859 -9.9428349 -10.809422 -9.9215326 -10.791706 -3.4074445 170.74112
112397500 -3.3936477 170.09758 -9.9177437 -11.028319 -9.9406633 -10.782295 -3.3885152 170.63109
112897000 -3.3667891 170.08357 -9.9301205 -10.843654 -9.9283819 -10.674872 -3.3866608 170.66704
113396500 -3.3800063 170.03961 -9.8628988 -11.090856 -9.900095 -10.912595 -3.4029756 170.50117
113896000 -3.3743732 170.04927 -9.9246759 -10.980565 -9.9430084 -11.161382 -3.4081085 170.51917
