!Agilent Technologies,E8362C,MY43020457,A.09.42.15
!Agilent E8362C: A.09.42.15
!Date: Friday, March 13, 2026 14:11:51
!Correction: S11(Full 2 Port(1,2)) 
!S21(Full 2 Port(1,2)) 
!S12(Full 2 Port(1,2)) 
!S22(Full 2 Port(1,2)) 
!S2P File: Measurements: S11, S21, S12, S22:
# Hz S  dB   R 50
10000000 0.06804958 179.37337 -45.185642 56.815262 -52.249569 120.90231 -55.291924 56.354412
10309375 0.097007938 178.93846 -45.628895 -100.54543 -53.823212 132.27795 -60.791412 -173.72263
10618750 0.12555499 179.55008 -47.953903 73.929916 -61.295429 -58.413658 -67.609314 111.69745
10928125 0.22169495 179.09013 -48.557056 -3.3574619 -54.917221 -110.36386 -57.973061 -138.96352
11237500 0.025688468 -179.97232 -40.954842 13.679724 -57.756405 -84.16423 -65.372536 100.15732
11546875 0.01850434 179.34753 -42.979733 59.451408 -60.278267 39.591408 -65.873787 152.70844
11856250 0.14821416 179.46452 -54.408161 -21.584629 -61.750015 -29.056961 -63.44825 70.604256
12165625 0.037603203 179.1124 -49.540077 10.694217 -52.959671 119.1166 -62.09248 108.92138
12475000 -0.033012997 179.41243 -45.704411 -159.55684 -64.584023 -48.342869 -61.347183 32.419308
12784375 0.091148578 179.11974 -47.796375 135.37572 -68.67025 -141.50407 -59.935024 -130.00317
13093750 0.035730977 179.39015 -43.345741 -159.05978 -68.82608 92.413048 -62.080875 98.430313
13403125 0.043425623 179.24686 -46.579788 69.508049 -58.288185 117.69897 -64.489914 78.424316
13712500 0.062318157 178.9019 -54.159031 -71.91217 -52.390507 75.318275 -64.274292 -110.74193
14021875 0.078830756 179.10567 -51.857994 81.900551 -53.615425 -88.557465 -64.123299 148.97128
14331250 0.078196749 179.3233 -61.566002 -8.7524729 -54.159058 -1.0574541 -59.035778 -65.87928
14640625 0.034653883 178.96516 -50.519417 94.525887 -53.488811 127.61345 -59.468174 61.067337
14950000 0.050860863 178.93297 -56.288933 145.28925 -53.347076 -26.079309 -80.378151 -135.5255
15259375 0.037878234 178.80362 -48.008045 97.005859 -61.222832 31.364285 -59.429081 61.066883
15568750 0.046737298 178.86137 -57.063831 -22.556667 -56.936893 -97.468475 -58.058212 92.821838
15878125 0.03662283 178.7415 -52.467983 41.0826 -59.708466 58.823849 -65.351181 -51.76199
16187500 0.037189826 178.6591 -53.192574 -59.270027 -55.411049 -35.462513 -62.538921 31.496103
16496875 0.052509431 178.6313 -59.190063 -20.462084 -62.502865 -8.4190369 -73.331917 64.10173
16806250 0.028991755 178.56104 -53.207851 37.112827 -56.376442 52.554203 -69.855583 154.52573
17115625 0.04435325 178.49702 -54.597687 -6.8109183 -54.282238 -155.12248 -58.265472 87.456795
17425000 0.054036159 178.41235 -59.003407 -8.1914997 -63.283154 174.38911 -65.116501 -42.525539
17734375 0.040070493 178.51053 -57.629028 -46.292168 -63.19001 -41.115089 -68.298744 -101.03634
18043750 0.041050654 178.46628 -56.453503 -0.89689052 -58.906036 124.73036 -61.673565 105.26501
18353125 0.03401785 178.44208 -61.104118 0.70020664 -65.86869 -45.056416 -88.342773 20.902863
18662500 0.04392571 178.38702 -59.879028 144.8683 -56.463169 97.215698 -74.33815 109.34027
18971875 0.020808106 178.29039 -53.555012 -154.50833 -57.103794 114.05314 -63.455318 -9.8042469
19281250 0.052263245 178.32391 -54.244514 -167.14334 -61.324703 -95.057655 -66.954361 87.297935
19590625 0.029821867 178.16541 -54.909637 9.623457 -67.577057 -38.897434 -69.065399 95.064491
19900000 0.024843542 178.22348 -56.750599 -177.18655 -62.942257 -71.313919 -58.655846 27.7237
20209375 0.044112097 178.07307 -61.68259 140.86378 -63.681843 40.03326 -68.320244 79.448006
20518750 0.03816358 178.20934 -55.834621 -91.068542 -67.776001 151.94781 -70.065224 16.477051
20828125 0.039564431 178.1282 -57.069496 -51.99099 -60.270931 72.598648 -74.597244 -34.190041
21137500 0.041982654 178.15288 -64.967186 77.781136 -67.778191 -113.57159 -62.616291 48.760719
21446875 0.048414387 178.09627 -60.326275 124.07543 -64.877457 136.91403 -65.70623 51.731369
21756250 0.031460989 177.90669 -68.316231 -74.381775 -63.903831 -149.18466 -67.981697 17.078823
22065625 0.053226609 177.96333 -64.598373 -41.502113 -60.185841 162.2666 -62.450489 100.15122
22375000 0.037247699 177.9416 -63.303322 -48.374863 -61.97699 85.263519 -68.496834 74.130005
22684375 0.025991995 177.97025 -58.577347 106.47469 -71.963455 20.103249 -68.095665 24.170425
22993750 0.032228146 177.81944 -61.460514 108.88972 -64.8675 -83.000908 -70.753136 80.361343
23303125 0.025986491 177.86627 -60.696091 -74.111214 -63.321922 48.814976 -65.204567 52.786194
23612500 0.030164983 177.71808 -64.203613 -61.84153 -65.615067 115.04893 -62.916809 88.87426
23921875 0.033718951 177.75247 -63.291348 -28.140619 -70.746941 -117.20486 -72.035629 21.126377
24231250 0.026065527 177.83171 -58.988316 39.539742 -67.916649 26.188663 -80.939629 23.487324
24540625 0.027806312 177.65396 -60.067993 -101.36479 -65.493866 30.900616 -66.975693 -175.7964
24850000 0.026152039 177.69937 -61.592182 -57.286728 -69.008392 55.488552 -73.372826 79.17868
25159375 0.02088102 177.49808 -66.077728 -3.7889287 -66.32058 42.215443 -71.058876 120.62099
25468750 0.020865759 177.54881 -62.675323 92.521294 -66.426674 110.87881 -69.891701 52.513065
25778125 0.02825989 177.62025 -60.601688 -15.263998 -71.163033 80.24498 -67.108856 46.623844
26087500 0.021280402 177.48807 -62.383095 -22.087873 -70.297707 94.008644 -65.997719 82.365166
26396875 0.031736016 177.46443 -60.581146 89.808495 -66.949661 75.555931 -87.62809 -54.057571
26706250 0.032200396 177.40068 -63.398083 -131.14992 -64.934105 85.893394 -59.75951 91.418892
27015625 0.029902413 177.37617 -69.476059 -123.228 -70.446259 -0.47355703 -68.163666 125.5927
27325000 0.021488082 177.37914 -68.649132 120.90788 -72.724106 87.237694 -64.791313 65.621437
27634375 0.021564513 177.3566 -59.469009 109.79911 -67.868141 -174.88153 -64.321854 43.191471
27943750 0.02371178 177.3535 -61.479141 112.97411 -67.929047 79.845909 -65.825798 80.692528
28253125 0.017423548 177.34848 -66.842148 -88.607323 -69.470558 -10.243412 -71.362106 118.97597
28562500 0.033451915 177.28302 -60.668755 24.571722 -68.124168 90.543541 -65.986191 42.061691
28871875 0.015748106 177.26111 -67.600975 -71.477158 -74.839859 -114.01736 -76.371147 -123.89698
29181250 0.025410609 177.23033 -63.630051 -50.844543 -88.303551 71.47139 -61.811817 124.2174
29490625 0.023826271 177.15326 -62.219471 24.889294 -79.018555 68.223259 -65.794662 144.52461
29800000 0.012860012 177.13358 -62.717728 63.008026 -63.74765 111.44247 -68.856575 -94.914833
30109375 0.023001971 177.07268 -58.954144 88.222038 -72.821175 77.131096 -65.855316 82.043533
30418750 0.020451104 177.05426 -70.204811 170.6127 -72.198418 86.383842 -63.572613 70.096169
30728125 0.0130713 177.02266 -67.014824 128.68942 -79.181076 -151.25638 -67.130287 106.17175
31037500 0.021850269 176.93118 -73.542877 99.879036 -75.170532 67.718002 -68.84539 92.317169
31346875 0.028679872 176.94896 -69.09108 161.91179 -70.842583 92.251076 -66.685326 105.0569
31656250 0.018430099 176.9946 -73.301926 76.217522 -79.421593 171.7657 -61.915936 105.89018
31965625 0.015257203 176.9351 -63.906544 169.06081 -74.525009 -0.83623153 -69.708191 122.07736
32275000 0.012001967 176.90158 -82.007629 -126.00671 -73.000336 112.74659 -62.65057 62.766685
32584375 0.021608755 176.83711 -68.496651 65.990356 -74.693428 -176.37311 -73.890945 110.92798
32893750 0.01797458 176.80203 -64.084084 94.267563 -73.900551 86.268677 -59.505741 97.468086
33203125 0.011966172 176.79601 -73.195282 75.769516 -79.173569 76.444687 -89.99826 35.208847
33512500 0.0097600268 176.76146 -76.294907 -96.9561 -64.675781 122.89371 -63.412792 48.454815
33821875 0.013467892 176.70692 -64.617447 83.565826 -70.142197 -3.3372445 -59.992466 55.309498
34131250 0.016417114 176.73082 -71.578041 122.34642 -69.896263 124.0548 -65.740234 77.490685
34440625 0.0064771115 176.67201 -65.944344 128.77368 -74.466171 141.01292 -65.516655 114.25397
34750000 0.0077019287 176.69325 -68.392273 103.40723 -75.187225 94.335709 -68.617432 71.612755
35059375 0.0069698757 176.61104 -78.948929 -30.976892 -68.92894 29.072157 -62.069885 57.559738
35368750 0.0082658287 176.64822 -65.838524 104.58535 -71.127884 17.656204 -61.821625 71.802261
35678125 0.0052984073 176.60361 -61.695602 51.028049 -74.558975 115.52216 -63.000229 75.591049
35987500 0.011447108 176.58282 -63.222809 109.18378 -78.497276 9.2103071 -60.650669 43.178368
36296875 -0.0012551943 176.28618 -61.346806 4.5992007 -67.427948 112.14938 -65.245384 126.9018
36606250 0.0069066635 176.34149 -67.208069 30.988688 -72.20343 116.95572 -66.686836 83.523216
36915625 0.011635618 176.4879 -69.422127 35.588375 -75.146172 102.4907 -66.945099 92.116158
37225000 0.0062353094 176.47728 -73.221642 141.37399 -81.994202 26.555294 -63.70866 113.90559
37534375 0.0094416989 176.39706 -60.974957 82.122177 -71.725616 32.375595 -63.744972 108.93553
37843750 0.0027022583 176.34143 -69.642838 106.82447 -72.235672 74.133095 -66.280731 63.354916
38153125 0.0043296176 176.32434 -66.369629 113.53278 -78.512711 115.80457 -68.872307 93.203217
38462500 0.006315568 176.27382 -66.283913 86.236717 -71.719002 53.89238 -66.945503 88.459435
38771875 -0.00079320883 176.30031 -64.537498 67.818153 -80.625832 121.96873 -67.236908 65.737228
39081250 0.0031317978 176.27388 -67.558319 52.333366 -81.162766 42.682831 -64.174339 91.246994
39390625 -4.1670983e-006 176.21852 -77.664131 164.28041 -65.610077 22.295263 -62.787308 65.448189
39700000 -0.0072678169 176.14667 -60.047081 116.52573 -70.802094 105.45499 -62.271957 89.614845
40009375 0.0078104683 176.13838 -62.869312 74.868736 -73.393616 54.641598 -63.63398 107.32446
40318750 -0.0027698965 176.11754 -69.308975 48.400818 -68.970833 98.042984 -62.710529 65.734184
40628125 -0.0031883791 176.12689 -69.942551 -177.40401 -71.347305 85.669434 -65.19471 77.386955
40937500 0.0064334511 176.03235 -63.88818 156.308 -70.52272 81.902618 -64.92543 76.005974
41246875 -0.0070702103 176.05498 -76.32959 94.491852 -71.595932 114.63696 -63.09449 64.99807
41556250 0.0041296929 176.00388 -72.17141 132.92393 -77.886818 179.93393 -60.819794 80.226768
41865625 0.0056401012 175.96188 -62.760979 36.647743 -71.276138 -12.140795 -60.337116 85.545822
42175000 -5.2373172e-005 175.94044 -71.132568 78.579132 -71.683357 144.62704 -61.159492 88.89019
42484375 0.0076340572 175.94029 -64.288193 130.0528 -79.153397 154.77612 -62.53706 81.384682
42793750 0.0076479204 175.87595 -76.153145 -99.497681 -71.653633 80.555298 -62.771935 82.852959
43103125 -0.0024899363 175.86049 -64.542183 46.092781 -74.072533 115.61414 -63.707443 91.921005
43412500 0.0054177744 175.8902 -68.991379 -6.7625999 -68.152908 83.329269 -60.904617 94.991646
43721875 0.00065214885 175.85951 -64.566437 111.22161 -74.284676 22.812086 -63.876751 93.514221
44031250 -0.0024608688 175.82993 -65.187592 70.130966 -71.92485 37.093719 -61.729633 85.397957
44340625 -0.0047491924 175.79156 -62.068047 113.94732 -70.085487 107.68786 -65.967072 74.392441
44650000 -0.0011596392 175.7731 -73.727737 94.632118 -76.075897 74.058632 -64.0541 96.179794
44959375 -0.0011814114 175.73495 -65.68782 77.536125 -72.699356 123.33582 -61.528996 81.76767
45268750 -0.022784198 175.78291 -56.232803 85.122597 -68.08445 25.008537 -55.101238 75.229942
45578125 -0.0096071782 175.68611 -58.647476 164.32494 -75.604141 -17.21426 -68.733406 75.732796
45887500 0.0090546915 175.83965 -53.363468 114.08331 -60.891567 -86.300331 -58.051567 93.969505
46196875 0.0082975477 175.80713 -55.878117 81.11628 -60.882412 -42.269119 -63.718246 105.96007
46506250 -0.021098405 175.4845 -79.950539 164.00851 -70.198326 -48.279129 -60.026077 97.17292
46815625 0.0043226047 175.43881 -57.459759 117.39237 -63.49369 31.270758 -65.753006 114.05655
47125000 -0.022752717 175.61028 -56.376823 -33.799435 -66.299973 -147.54778 -62.261463 93.430435
47434375 0.0051339399 175.45955 -60.907543 98.253525 -70.953873 136.2574 -56.063587 102.05905
47743750 -0.031338934 175.26436 -57.395798 28.632299 -73.634232 72.622528 -58.709297 96.750893
48053125 0.0077550435 175.37581 -67.130592 -134.28308 -84.646553 158.8326 -61.428604 89.24379
48362500 0.0066013159 175.56219 -65.281349 80.598763 -71.713753 126.04329 -56.778316 143.49117
48671875 0.041076664 175.55019 -55.167347 -171.14273 -63.140469 124.41695 -56.476711 83.763313
48981250 -0.004905595 175.51579 -73.387581 168.59633 -83.789886 -141.85519 -62.094368 142.60249
49290625 -0.0036658819 175.43065 -55.741856 141.57172 -63.539272 123.66132 -60.811554 80.142357
49600000 -0.007191868 175.46638 -62.856117 -116.17962 -63.329185 112.29813 -64.520973 69.656097
49909375 -0.021067154 175.3866 -62.86232 21.110781 -68.156776 16.998167 -67.808418 124.54342
50218750 0.0024428084 175.23122 -53.9823 -134.16672 -64.320747 17.244764 -58.301804 104.67856
50528125 -0.0033048266 175.35448 -53.887928 127.14881 -67.240517 -19.681263 -59.218849 91.061646
50837500 0.00098516326 175.40045 -59.638081 72.421906 -61.574821 -144.22415 -60.848232 97.844437
51146875 0.0082540596 175.3371 -71.214706 -118.9118 -77.536766 59.969997 -57.231281 102.53468
51456250 -0.018710189 175.17773 -54.355179 171.55052 -60.279022 -9.9590635 -59.03101 104.37423
51765625 -0.0086549819 175.06062 -52.181614 124.82081 -56.627201 57.192619 -63.588566 130.52414
52075000 0.010135335 175.25302 -58.949223 -15.692252 -72.728683 -156.04291 -60.623554 103.80592
52384375 0.00098802161 175.00829 -56.38628 27.774475 -64.119446 -108.83266 -56.578842 109.02345
52693750 -0.035613816 175.09538 -61.893108 161.11171 -68.482521 -8.2399158 -59.873501 107.22446
53003125 0.010619405 175.03934 -53.909203 -27.582256 -69.875954 -20.418247 -63.010094 69.15873
53312500 -0.010024257 175.00035 -62.454861 16.130512 -71.72097 -119.87202 -62.434559 130.72209
53621875 -0.0177611 174.90392 -53.380867 21.447926 -67.446426 78.879845 -66.583237 92.958633
53931250 -0.03285104 175.01875 -50.451794 97.879875 -61.247253 -73.746078 -64.872482 69.671272
54240625 -0.00037846784 174.90758 -56.955181 59.674374 -66.172096 127.24559 -58.192402 100.77243
54550000 0.00080842944 174.9126 -56.79369 59.268345 -58.915375 32.238163 -57.797043 101.75146
54859375 0.0065060491 174.82918 -69.306274 165.85536 -70.378654 39.974407 -58.071266 96.391739
55168750 -0.013423332 174.97461 -58.393044 30.801899 -69.437683 -61.93824 -58.869492 102.18285
55478125 0.027959405 174.82188 -53.962475 132.0914 -61.14497 -176.38402 -56.955776 104.7783
55787500 -0.02602971 174.81772 -69.061325 -139.71288 -67.153709 20.922989 -58.319229 77.351143
56096875 -0.00072245009 174.81374 -60.892891 50.592876 -61.47171 4.6460776 -62.652832 97.376343
56406250 0.020001113 174.90669 -58.846416 174.11551 -65.599503 -145.10907 -57.014664 66.314369
56715625 0.002042515 174.88864 -58.850639 85.195847 -61.620251 -31.941025 -64.143097 94.276245
57025000 -0.0017232398 174.86684 -59.551781 -71.342468 -72.343887 -1.0393983 -55.964405 104.11331
57334375 -0.016220266 174.60374 -70.801529 93.675789 -74.321953 -13.816251 -62.172688 95.902565
57643750 -0.015798671 174.59244 -56.519028 61.834175 -68.905441 -164.23576 -58.154026 71.910912
57953125 -0.014633097 174.60931 -55.602814 21.886871 -62.31913 78.391953 -56.839855 80.04715
58262500 0.0017215981 174.58034 -63.787827 96.862419 -61.139023 125.05137 -57.651699 82.898697
58571875 -0.0076929163 174.65985 -64.339951 52.818035 -69.248322 70.965508 -59.769295 98.680145
58881250 -0.00097909849 174.50743 -67.38028 8.7936516 -66.394341 83.271271 -58.469902 71.121902
59190625 -0.013208528 174.46675 -56.66375 -20.641497 -65.25412 6.4668446 -59.227367 95.709373
59500000 -0.003821189 174.41873 -64.805962 67.814964 -67.840622 -83.281136 -57.134979 77.372444
59809375 -0.0082791243 174.44057 -56.806538 8.3432827 -59.39315 -121.86593 -59.274681 77.334244
60118750 -0.0059188684 174.40472 -70.722122 125.7203 -67.889793 98.613289 -56.104729 87.640205
60428125 -0.021327237 174.44919 -58.308258 -23.332369 -70.174553 79.70961 -59.189034 77.570747
60737500 -0.0064351116 174.44826 -69.904839 -0.46083197 -69.060715 -154.18396 -56.204288 91.659721
61046875 -0.039508402 174.3761 -68.796066 48.237286 -70.689529 97.352112 -60.664463 80.540024
61356250 -0.020561026 174.22485 -56.211208 64.994576 -57.486046 -25.247124 -56.210377 97.141922
61665625 -0.0030930287 174.15572 -78.109642 -8.6705132 -60.418423 86.496979 -58.26244 67.785194
61975000 0.0011221746 174.23389 -64.585693 166.10326 -63.517231 97.76947 -57.371471 91.45388
62284375 -0.003894364 174.16486 -58.563046 139.974 -63.848854 89.806984 -58.860111 68.396355
62593750 0.024058746 174.1115 -55.71949 134.51184 -61.729717 -147.02954 -60.431896 62.487877
62903125 -0.017164869 174.10571 -59.171993 -4.7830296 -62.702065 -163.22687 -57.216473 85.374283
63212500 0.0097200461 174.14699 -54.19577 61.18224 -59.802414 87.731194 -59.323868 75.859917
63521875 -0.022553064 174.02725 -60.33604 130.9494 -66.642479 162.10899 -57.980835 85.726524
63831250 -0.012034128 173.9592 -57.397835 77.853401 -66.852211 60.571205 -58.121391 81.84803
64140625 -0.017178785 173.96298 -56.701256 69.901047 -61.583611 53.960308 -56.891384 89.259415
64450000 -0.012759693 173.93497 -60.589607 50.286201 -57.97319 -160.17844 -56.666725 96.678642
64759375 -0.0087914579 174.06534 -62.017532 146.70787 -73.153267 138.57768 -60.362587 76.959999
65068750 -0.0046853484 174.04526 -53.74044 133.53206 -60.768475 97.346138 -56.032391 71.345322
65378125 0.0054054451 173.80299 -55.740578 105.55868 -61.49577 72.500305 -58.856289 109.92062
65687500 -0.0061347503 173.84767 -55.551205 122.37965 -65.54847 100.15665 -58.737057 82.207451
65996875 0.025530953 173.87047 -52.44352 16.986555 -63.863132 -13.593565 -61.793922 63.085583
66306250 -0.0026943581 173.66159 -55.264851 84.266533 -78.681923 -54.493462 -59.026314 91.745659
66615625 -0.0071095699 173.67802 -54.704884 133.57692 -63.644379 16.821014 -61.362869 94.003128
66925000 -0.01477876 173.65228 -56.145477 93.725777 -71.666168 -1.7185866 -57.862801 84.098534
67234375 -0.028095106 173.67993 -58.836109 9.0373974 -66.033722 -151.48454 -57.631336 62.271606
67543750 -0.0014957289 173.57509 -57.335663 62.658638 -60.992966 101.30296 -58.906803 73.320282
67853125 0.00062443106 173.58597 -71.477036 -21.235731 -68.923187 -124.48558 -58.226032 94.3582
68162500 -0.011256769 173.60754 -67.837608 45.563847 -84.076569 74.798355 -56.463882 85.814575
68471875 -0.021429168 173.5705 -73.897781 69.125694 -65.071693 103.82001 -59.503399 92.65741
68781250 -0.0018369197 173.45172 -53.892216 96.642273 -71.509903 64.764305 -55.686916 83.862549
69090625 0.006208742 173.49388 -64.555275 115.46525 -64.376999 154.67355 -58.052086 86.538246
69400000 0.0053178254 173.64061 -51.847652 77.634262 -68.38092 -22.653332 -58.73468 95.111328
69709375 0.0035437825 173.2861 -63.327751 -147.10855 -73.092636 -116.42673 -57.472874 81.143867
70018750 -0.0046922318 173.4333 -59.470131 2.8808954 -88.360146 -117.95541 -59.685631 91.23838
70328125 -0.017906288 173.45071 -57.042824 54.982063 -68.874474 44.532169 -56.830349 94.008194
70637500 -0.015103308 173.37929 -51.971577 130.63278 -60.366158 41.894676 -56.749599 97.512558
70946875 -0.019081153 173.32668 -84.528244 173.78265 -64.524101 58.428356 -58.662174 78.563812
71256250 -0.019668655 173.29813 -57.503368 55.000622 -74.947624 -86.366402 -61.680668 85.746902
71565625 -0.017524591 173.29466 -54.314587 98.05484 -62.563976 11.422763 -59.717609 93.748993
71875000 0.0032182019 173.33429 -60.327843 23.108366 -61.467266 67.468773 -56.772423 93.112511
72184375 -0.015620329 173.19817 -56.373997 100.28864 -65.396675 -11.991499 -55.581329 94.442299
72493750 -0.0081113465 173.13684 -55.240448 66.023209 -68.825264 16.20599 -57.182423 88.185448
72803125 -0.0024252699 173.1153 -67.708435 108.87447 -61.549652 91.006027 -55.966743 74.395561
73112500 -0.018215934 173.04861 -58.587944 98.133003 -60.160816 38.000893 -61.668797 86.302963
73421875 -0.0094740335 173.04778 -65.306122 -28.50626 -64.643677 86.011383 -58.77795 86.761574
73731250 -0.0039068027 172.94972 -63.117641 116.77219 -61.163784 22.149553 -59.620247 96.414505
74040625 0.00025366168 173.07227 -58.829231 68.553329 -66.889778 -50.299866 -55.922497 80.644173
