!Agilent Technologies,E8362C,MY43020457,A.09.42.15
!Agilent E8362C: A.09.42.15
!Date: Friday, March 13, 2026 15:04:20
!Correction: S11(Full 2 Port(1,2)) 
!S21(Full 2 Port(1,2)) 
!S12(Full 2 Port(1,2)) 
!S22(Full 2 Port(1,2)) 
!S2P File: Measurements: S11, S21, S12, S22:
# Hz S  dB   R 50
10000000 -31.052431 -110.75871 -0.024296476 -1.7004689 -0.1051103 -1.1728902 -35.708855 -104.82291
10499500 -34.919991 -132.55052 -0.07404308 -1.2821782 -0.058691863 -1.5811535 -35.392036 -138.24142
10999000 -34.698517 -108.18032 -0.13921539 -1.8333113 -0.0087675881 -1.8651377 -32.19717 -116.42711
11498500 -33.797928 -126.43301 -0.090872444 -1.6567563 -0.085189231 -2.0014515 -32.485077 -121.71082
11998000 -34.687538 -140.42213 -0.097470902 -1.6908635 -0.061247069 -1.8892231 -37.027431 -137.56216
12497500 -32.628643 -110.27792 -0.1228241 -1.9629428 -0.085717328 -1.5008476 -32.15292 -116.26801
12997000 -34.294853 -116.3152 -0.091296859 -2.0292428 -0.11443638 -2.0952842 -32.720264 -119.88169
13496500 -31.559742 -113.77937 -0.11142877 -1.5772668 -0.083320506 -2.2473383 -33.561802 -126.51079
13996000 -32.847336 -115.52787 -0.086717829 -1.8564786 -0.075170644 -2.2870371 -33.246658 -113.76644
14495500 -31.60681 -118.81538 -0.07705152 -2.3537188 -0.073542863 -2.0720303 -31.440428 -112.67463
14995000 -33.465973 -112.12428 -0.067494437 -2.2275274 -0.09538129 -2.1581481 -33.661079 -113.44492
15494500 -32.257786 -119.93998 -0.064169019 -2.272213 -0.090421148 -2.4559655 -33.215282 -112.83091
15994000 -31.304802 -117.93464 -0.079600699 -2.4550519 -0.090866365 -2.3323579 -32.716145 -115.29363
16493500 -32.236259 -117.07265 -0.086947337 -2.2847011 -0.092245877 -2.2456384 -31.263613 -111.52667
16993000 -30.704617 -114.11883 -0.073772527 -2.5472522 -0.082047202 -2.3972723 -32.339828 -116.89148
17492500 -31.780725 -113.04503 -0.089714415 -2.5646648 -0.095319003 -2.3361082 -31.697647 -118.29276
17992000 -30.930882 -114.00914 -0.057592366 -2.7225893 -0.079035774 -2.6048198 -31.561272 -115.54688
18491500 -31.17576 -112.08609 -0.069560274 -2.8269048 -0.10640062 -2.5649359 -31.052307 -118.33321
18991000 -30.062948 -110.87836 -0.089928657 -2.8748074 -0.089113273 -2.9267497 -30.799189 -114.87541
19490500 -30.453501 -113.28703 -0.094127946 -2.9092565 -0.086771898 -2.8695166 -30.888756 -112.5312
19990000 -30.663971 -114.20103 -0.080760241 -2.9865894 -0.053053774 -3.0545747 -30.897869 -109.50124
20489500 -30.721273 -109.27045 -0.079700291 -2.9603963 -0.076582223 -2.9111409 -30.409286 -113.2774
20989000 -29.834312 -110.42638 -0.076512106 -3.2031434 -0.099751465 -2.934217 -30.825533 -112.94042
21488500 -30.070353 -110.37669 -0.089497536 -3.1880016 -0.10299848 -3.1252785 -30.224779 -113.78786
21988000 -29.381468 -109.96758 -0.074041672 -3.2777379 -0.093439259 -3.1777301 -29.723032 -112.84756
22487500 -29.907206 -109.86256 -0.092322789 -3.3608909 -0.086804956 -3.2511613 -29.532085 -111.4473
22987000 -29.619364 -108.59222 -0.09722162 -3.3882573 -0.090847179 -3.4233248 -29.548023 -110.80434
23486500 -29.34454 -110.76993 -0.096163511 -3.5344255 -0.092225738 -3.4179957 -29.026169 -110.33228
23986000 -29.268675 -110.80276 -0.08071921 -3.5151973 -0.0901374 -3.5178549 -29.214787 -111.27717
24485500 -29.270432 -108.32331 -0.097078823 -3.5970006 -0.10757308 -3.5158253 -29.059393 -113.81086
24985000 -28.554073 -111.34346 -0.095461331 -3.7331045 -0.10689206 -3.6717453 -29.040482 -110.45475
25484500 -28.80599 -110.32497 -0.080299772 -3.7697692 -0.091882206 -3.6213095 -28.576468 -108.66292
25984000 -28.286293 -112.21665 -0.091313012 -3.8778298 -0.098916203 -3.6332517 -28.3892 -109.63587
26483500 -28.440363 -110.22334 -0.091534175 -3.9264274 -0.091197111 -3.8840003 -28.411242 -109.93948
26983000 -27.857822 -110.5005 -0.11846395 -4.0379176 -0.10863198 -3.9017417 -28.504423 -108.80897
27482500 -28.095663 -109.23931 -0.099083096 -4.0784988 -0.09440019 -3.8159175 -28.131145 -110.27541
27982000 -27.95755 -110.35632 -0.098938346 -4.1535602 -0.087143332 -4.1318197 -28.155937 -109.44389
28481500 -27.897938 -110.64747 -0.08802861 -4.2427845 -0.1050607 -4.2103052 -27.957037 -110.27898
28981000 -27.660194 -108.84056 -0.098988853 -4.2215743 -0.10290451 -4.0686502 -27.754795 -109.69753
29480500 -27.474493 -108.61813 -0.091424443 -4.3518958 -0.10136861 -4.2591639 -27.869673 -108.55566
29980000 -27.430746 -110.03307 -0.095471717 -4.3418026 -0.10510113 -4.3552327 -27.54464 -109.95829
30479500 -27.124754 -109.83448 -0.095869288 -4.3884697 -0.11843622 -4.3994293 -27.322296 -109.11156
30979000 -27.236799 -107.08363 -0.091928929 -4.5145855 -0.10061624 -4.5155721 -27.267958 -108.22094
31478500 -27.017296 -108.41118 -0.10227878 -4.6410666 -0.091710672 -4.4799385 -27.450895 -109.20953
31978000 -26.964914 -107.80818 -0.105079 -4.6564603 -0.098202854 -4.5841584 -27.046921 -108.01633
32477500 -26.843346 -108.97115 -0.089978755 -4.7333989 -0.11310883 -4.6378903 -26.900616 -108.73248
32977000 -26.678406 -108.67051 -0.089657336 -4.8537354 -0.10771793 -4.7725492 -26.752428 -107.8872
33476500 -26.656301 -108.03445 -0.10168646 -4.8338938 -0.10803744 -4.8207068 -26.457325 -109.35082
33976000 -26.588272 -110.089 -0.10133695 -4.9428778 -0.10148516 -4.8479753 -26.661369 -108.82165
34475500 -26.390358 -109.1926 -0.094040565 -5.0004354 -0.10213246 -4.9518914 -26.472692 -108.4939
34975000 -26.216913 -107.58902 -0.099005416 -5.0817385 -0.10835689 -5.1145682 -26.171103 -108.06181
35474500 -26.157467 -108.4213 -0.099229872 -5.1744924 -0.11594459 -5.0418267 -26.114338 -108.174
35974000 -26.047014 -108.53633 -0.10664338 -5.2318602 -0.10899878 -5.210247 -25.998985 -109.29561
36473500 -25.841003 -109.7698 -0.10523845 -5.2793946 -0.10599703 -5.2062125 -25.974758 -109.30384
36973000 -25.891891 -107.81923 -0.10969994 -5.4353585 -0.11760791 -5.3316708 -25.765791 -108.74038
37472500 -25.659609 -107.36858 -0.10406659 -5.4774384 -0.10823452 -5.3861337 -25.55773 -108.25334
37972000 -25.461136 -108.58275 -0.094892129 -5.5469928 -0.11322787 -5.41713 -25.617643 -108.16075
38471500 -25.54916 -108.27781 -0.092582084 -5.6058297 -0.10980017 -5.5127525 -25.487082 -108.5146
38971000 -25.425035 -107.90189 -0.10483997 -5.6490393 -0.10835064 -5.6083965 -25.384129 -107.80109
39470500 -25.2507 -108.77247 -0.11360205 -5.7402682 -0.11539903 -5.6614156 -25.33614 -107.72795
39970000 -25.014467 -107.68501 -0.11722929 -5.8236237 -0.11419708 -5.7299609 -25.191021 -108.17455
40469500 -25.045959 -107.70789 -0.10704699 -5.8179007 -0.12044878 -5.8362904 -25.295298 -108.01662
40969000 -24.879789 -108.98505 -0.1105838 -5.9665971 -0.12224131 -5.8377676 -25.064579 -108.98317
41468500 -24.902367 -107.90446 -0.10277313 -6.0198441 -0.11405966 -5.9521446 -24.831087 -107.68687
41968000 -24.773876 -107.77806 -0.11001246 -6.1003795 -0.11993293 -6.0779934 -24.674246 -108.71329
42467500 -24.680307 -108.11957 -0.10221647 -6.1845145 -0.11359963 -6.1482353 -24.688396 -108.81082
42967000 -24.444368 -107.77754 -0.11404427 -6.2152414 -0.11532348 -6.2385926 -24.535105 -108.46684
43466500 -24.523901 -108.18072 -0.10557663 -6.3444409 -0.1177532 -6.2445421 -24.482359 -108.32602
43966000 -24.241777 -107.71177 -0.12087198 -6.4272761 -0.12514417 -6.3275642 -24.377419 -107.75641
44465500 -24.331333 -107.67509 -0.10609569 -6.4808078 -0.11249092 -6.3772631 -24.322912 -108.15343
44965000 -24.28665 -108.51185 -0.11322666 -6.4914336 -0.11149956 -6.4232721 -24.150799 -108.69194
45464500 -24.26226 -108.62706 -0.12841867 -6.6490631 -0.1177182 -6.6845942 -24.179123 -107.08114
45964000 -23.975851 -108.70808 -0.12641354 -6.6120276 -0.10023578 -6.481101 -24.01095 -106.45612
46463500 -23.94643 -108.78815 -0.12064765 -6.7297106 -0.11500324 -6.7081609 -23.852629 -107.85611
46963000 -23.713942 -108.7971 -0.1155951 -6.6864862 -0.1100515 -6.6518111 -23.760431 -108.4014
47462500 -23.696377 -108.27454 -0.11111893 -6.6119156 -0.11704479 -6.7868972 -23.658783 -106.6395
47962000 -23.604197 -107.83726 -0.13023517 -6.8786621 -0.12668568 -6.9553652 -23.604897 -108.685
48461500 -23.667603 -107.20372 -0.11736761 -7.0792594 -0.15172191 -6.9964657 -23.731922 -108.57842
48961000 -23.625202 -107.98114 -0.11308441 -6.9495544 -0.13816272 -7.1385174 -23.418234 -109.04553
49460500 -23.768164 -107.67484 -0.13223077 -7.0814075 -0.13140857 -6.9695578 -23.344601 -107.22883
49960000 -23.38759 -107.50357 -0.10054969 -7.1967878 -0.12425624 -7.3321142 -23.217405 -109.05502
50459500 -23.187325 -107.43388 -0.12026899 -7.1793981 -0.14136222 -7.2830853 -23.306784 -109.79854
50959000 -23.181154 -109.19967 -0.12388475 -7.1978745 -0.13727915 -7.4542842 -23.009506 -108.12515
51458500 -23.140478 -109.94221 -0.13474907 -7.4816494 -0.15175501 -7.4702592 -23.283102 -109.29251
51958000 -23.17581 -107.79627 -0.12735553 -7.3530455 -0.098485537 -7.4302583 -23.263727 -106.6907
52457500 -23.291437 -107.50712 -0.12476008 -7.6147661 -0.13191655 -7.606566 -22.692028 -107.20525
52957000 -23.154793 -109.737 -0.12796547 -7.510057 -0.10429382 -7.5929747 -23.072109 -108.80024
53456500 -22.94058 -108.54941 -0.1253784 -7.6135144 -0.10574532 -7.7515545 -22.889353 -106.81862
53956000 -22.75894 -107.25845 -0.12032147 -7.7744827 -0.15426251 -7.8684225 -22.570929 -109.82221
54455500 -22.468611 -107.64394 -0.13261634 -7.7971683 -0.12703682 -7.8237677 -22.622419 -107.5655
54955000 -22.52626 -107.9016 -0.15733925 -7.6464124 -0.10601252 -7.8717794 -23.055479 -109.14816
55454500 -22.279497 -108.39259 -0.13592352 -8.068655 -0.13241492 -7.7049351 -22.644783 -108.01599
55954000 -22.364435 -107.96552 -0.14605695 -8.0299034 -0.15726641 -8.1275158 -22.567846 -105.88289
56453500 -22.362585 -108.98849 -0.13415332 -8.0333958 -0.12146118 -8.0657043 -22.334187 -107.52721
56953000 -22.147846 -106.90398 -0.12784587 -8.1245899 -0.14228946 -8.1462193 -22.110443 -108.55841
57452500 -22.21203 -109.70919 -0.11657713 -8.2556124 -0.12831281 -8.2566957 -22.156916 -108.75829
57952000 -22.164518 -108.98529 -0.14534453 -8.3704252 -0.13459936 -8.3569641 -22.105648 -107.52125
58451500 -22.182859 -107.70865 -0.1298847 -8.4791679 -0.13359776 -8.226037 -22.120115 -108.55877
58951000 -22.043846 -108.835 -0.14963923 -8.5299759 -0.14649816 -8.3046322 -21.967588 -108.47301
59450500 -21.876719 -108.66831 -0.13248898 -8.376565 -0.13220781 -8.4945879 -22.001101 -109.02304
59950000 -21.810886 -108.2178 -0.11329979 -8.5789909 -0.15515408 -8.6105061 -21.826202 -108.76817
60449500 -21.718 -108.74612 -0.13044527 -8.6933985 -0.14583279 -8.6493158 -21.71278 -108.53511
60949000 -21.466822 -108.21494 -0.14380723 -8.7913742 -0.14569663 -8.647624 -21.793898 -108.74588
61448500 -21.531738 -109.42044 -0.13210055 -8.8998852 -0.1274094 -8.6693172 -21.581205 -108.30309
61948000 -21.599129 -108.8643 -0.14749147 -8.8356781 -0.15256861 -8.8227615 -21.56521 -109.94781
62447500 -21.406179 -109.58587 -0.13464481 -8.9750738 -0.15245219 -8.9648466 -21.537718 -110.01468
62947000 -21.404093 -108.76473 -0.13341062 -8.9383345 -0.14694983 -8.9329348 -21.589542 -108.7382
63446500 -21.339268 -108.93373 -0.13795209 -8.9559097 -0.15600573 -8.9847794 -21.30615 -108.44585
63946000 -21.34215 -109.02093 -0.15538974 -9.1306543 -0.13830367 -9.0622244 -21.240389 -109.17092
64445500 -21.286535 -109.1941 -0.13651697 -9.257802 -0.14305326 -9.2347727 -21.3388 -108.9841
64945000 -20.998125 -108.32762 -0.15315737 -9.3191442 -0.16553403 -9.2901497 -21.028769 -107.77001
65444500 -21.189409 -108.12252 -0.12667696 -9.2312651 -0.14324108 -9.4729881 -21.162437 -109.19895
65944000 -21.132629 -108.95143 -0.14407264 -9.3778458 -0.15742441 -9.4710131 -21.203373 -108.20939
66443500 -20.933897 -107.51456 -0.13084224 -9.5438538 -0.14411123 -9.4466524 -20.900974 -109.0771
66943000 -20.904921 -110.17295 -0.14123505 -9.4670992 -0.17064956 -9.5972929 -21.138285 -108.74061
67442500 -20.821722 -107.9185 -0.13361652 -9.6302156 -0.14694639 -9.6399946 -20.853642 -109.67161
67942000 -20.843315 -107.97914 -0.15290961 -9.71628 -0.12411919 -9.6929798 -20.87248 -109.41701
68441500 -20.746128 -109.26929 -0.15084679 -9.8031178 -0.14963675 -9.827425 -20.777002 -108.78648
68941000 -20.649307 -110.12868 -0.15370135 -9.8796921 -0.1470017 -9.8159847 -20.728611 -110.30671
69440500 -20.543314 -109.16833 -0.14927222 -9.7442904 -0.15064424 -9.8687763 -20.471901 -109.79219
69940000 -20.541893 -109.39916 -0.17188117 -9.9118357 -0.14354938 -10.013392 -20.624914 -109.54929
70439500 -20.458107 -109.80814 -0.17511453 -9.9471903 -0.15661728 -10.108081 -20.456354 -110.03793
70939000 -20.442009 -110.00401 -0.15142798 -10.21387 -0.15945345 -9.9051991 -20.465099 -109.52042
71438500 -20.382515 -108.70156 -0.16488448 -10.304286 -0.17271519 -10.042478 -20.501413 -109.50201
71938000 -20.408607 -109.22158 -0.15993343 -10.162362 -0.15762107 -10.225139 -20.371811 -109.44776
72437500 -20.234289 -109.20856 -0.16081865 -10.198024 -0.17344145 -10.2754 -20.367514 -110.3965
72937000 -20.205336 -110.32873 -0.16071281 -10.320815 -0.15947641 -10.377617 -20.250595 -110.49135
73436500 -20.173283 -110.23292 -0.14639173 -10.468602 -0.1689844 -10.46244 -20.067074 -110.08792
73936000 -20.111946 -110.18694 -0.15877783 -10.47334 -0.16213089 -10.42528 -19.980404 -109.52612
74435500 -19.98242 -109.44438 -0.16841918 -10.55024 -0.15760115 -10.64583 -20.00877 -108.99586
74935000 -19.87657 -109.88385 -0.15910201 -10.647456 -0.15815084 -10.595984 -20.063616 -110.59184
75434500 -19.948195 -109.92122 -0.16369587 -10.623246 -0.16683123 -10.641131 -19.977961 -110.38258
75934000 -20.005766 -110.02159 -0.14996529 -10.757011 -0.17579769 -10.744324 -19.920292 -110.72273
76433500 -19.894102 -109.62939 -0.15315796 -10.883274 -0.18480104 -10.772458 -19.775196 -111.06694
76933000 -19.756128 -110.71096 -0.16078193 -10.947701 -0.18235669 -10.788013 -19.870043 -109.79684
77432500 -19.75742 -110.29547 -0.16733183 -11.092663 -0.15546255 -11.050961 -19.758902 -110.82841
77932000 -19.658669 -111.05003 -0.17093533 -10.915584 -0.18169215 -11.018501 -19.655617 -110.78535
78431500 -19.568878 -110.62213 -0.18251315 -11.303554 -0.18648507 -11.127333 -19.628086 -110.32364
78931000 -19.556021 -110.92695 -0.16499957 -11.096261 -0.17569341 -11.211773 -19.525005 -110.42293
79430500 -19.537216 -110.64657 -0.17256799 -11.176748 -0.18246113 -11.23997 -19.4977 -110.62858
79930000 -19.440735 -111.42527 -0.16732585 -11.18007 -0.18144795 -11.270694 -19.570473 -109.85583
80429500 -19.464808 -110.86284 -0.16558513 -11.540489 -0.16454089 -11.38007 -19.405735 -110.70819
80929000 -19.385221 -110.66859 -0.16432036 -11.466311 -0.1753511 -11.512605 -19.329885 -111.06253
81428500 -19.17725 -110.07635 -0.18267511 -11.440275 -0.16718638 -11.656235 -19.288179 -109.81127
81928000 -19.328537 -111.10591 -0.17620003 -11.59535 -0.18198015 -11.686684 -19.250681 -110.8757
82427500 -19.158356 -111.04764 -0.18767522 -11.625929 -0.17114285 -11.56838 -19.160994 -110.73106
82927000 -19.263594 -110.15444 -0.17541583 -11.622903 -0.17217201 -11.836976 -19.304859 -111.48212
83426500 -19.049692 -111.61618 -0.17888081 -11.805969 -0.18763542 -11.772669 -19.209965 -110.68818
83926000 -18.9618 -110.5852 -0.17394803 -11.813304 -0.17001182 -11.798989 -19.077524 -110.76295
84425500 -18.907314 -111.01395 -0.16114253 -12.005527 -0.18415751 -11.952883 -19.070539 -111.00748
84925000 -19.02121 -111.06771 -0.15894638 -12.008862 -0.17149198 -12.028559 -18.977541 -111.1171
85424500 -18.871923 -110.63686 -0.17272927 -12.076781 -0.18825904 -11.987627 -18.939133 -111.27229
85924000 -18.791311 -112.15893 -0.16985221 -12.266239 -0.17360856 -12.206548 -18.777624 -110.97269
86423500 -18.764278 -111.44774 -0.18142529 -12.286831 -0.18893906 -12.24932 -18.743898 -111.12605
86923000 -18.778763 -110.92208 -0.1737698 -12.237466 -0.17958829 -12.377294 -18.768806 -111.08311
87422500 -18.761703 -111.59843 -0.18670177 -12.428585 -0.19862297 -12.303125 -18.678314 -111.12015
87922000 -18.687223 -111.42568 -0.1882634 -12.319965 -0.20365474 -12.46773 -18.6049 -112.06359
88421500 -18.696997 -111.24921 -0.18984511 -12.536253 -0.19162351 -12.395453 -18.694296 -111.81171
88921000 -18.610651 -111.59686 -0.20533681 -12.642146 -0.17427868 -12.594386 -18.643105 -111.39116
89420500 -18.553375 -111.71188 -0.18162189 -12.579251 -0.19214612 -12.794335 -18.510511 -112.15478
89920000 -18.497511 -111.82384 -0.19433111 -12.736312 -0.1830624 -12.670113 -18.510773 -111.45486
90419500 -18.407248 -112.13149 -0.18403067 -12.804754 -0.20581283 -12.759066 -18.457066 -111.73478
90919000 -18.427227 -111.54823 -0.19775997 -12.928993 -0.20557983 -12.787309 -18.487625 -111.59354
91418500 -18.383085 -112.19221 -0.18533345 -12.851733 -0.20848878 -12.989064 -18.253841 -111.56913
91918000 -18.265903 -111.90603 -0.2118271 -12.896744 -0.20055388 -12.925016 -18.384048 -111.93364
92417500 -18.214828 -111.89664 -0.1925959 -12.980247 -0.20016249 -13.083814 -18.26856 -111.97266
92917000 -18.126034 -111.98604 -0.19510186 -13.036254 -0.19537318 -12.951574 -18.216532 -112.26328
93416500 -18.235094 -112.05628 -0.19528186 -13.15811 -0.19654901 -13.256297 -18.125992 -112.58676
93916000 -18.125605 -112.15654 -0.19583921 -13.261896 -0.22063175 -13.144391 -18.153042 -112.64015
94415500 -18.049252 -111.8389 -0.19966292 -13.31344 -0.20138136 -13.330894 -18.051018 -111.93916
94915000 -18.031616 -112.29774 -0.19616933 -13.303253 -0.20676883 -13.402002 -17.992296 -112.27199
95414500 -17.988724 -112.53543 -0.19769184 -13.463239 -0.19236839 -13.453682 -18.063507 -112.58736
95914000 -17.966095 -112.34681 -0.19245188 -13.546795 -0.23172909 -13.494947 -17.924717 -112.31992
96413500 -17.886225 -112.29225 -0.21061902 -13.505581 -0.20385619 -13.673823 -17.896154 -112.62231
96913000 -17.916866 -112.40935 -0.22135717 -13.716208 -0.20275193 -13.687755 -17.852884 -112.46886
97412500 -17.826958 -112.39538 -0.20406114 -13.759112 -0.22573924 -13.626237 -17.827826 -112.86973
97912000 -17.761255 -113.16711 -0.19980817 -13.683265 -0.21904282 -13.822596 -17.773466 -112.85849
98411500 -17.710503 -112.17742 -0.19559164 -13.862712 -0.20617117 -13.839293 -17.793083 -112.54935
98911000 -17.721067 -112.2295 -0.21252686 -13.943141 -0.2049088 -13.945492 -17.814451 -112.68059
99410500 -17.682653 -112.61483 -0.20503151 -13.906588 -0.20573507 -13.953749 -17.694601 -112.60015
99910000 -17.547562 -112.78442 -0.21115223 -14.00076 -0.1928689 -13.994412 -17.651264 -112.38745
100409500 -17.558672 -113.09599 -0.20850247 -14.060099 -0.22298825 -14.121096 -17.583101 -113.33599
100909000 -17.531761 -113.10129 -0.222019 -14.197986 -0.20397958 -14.20892 -17.596308 -113.04327
101408500 -17.497595 -113.08605 -0.21444225 -14.247635 -0.20788278 -14.313888 -17.533344 -113.26821
101908000 -17.33329 -113.38109 -0.2202248 -14.349577 -0.2201198 -14.32217 -17.446182 -113.17517
102407500 -17.370739 -112.94363 -0.20311883 -14.405885 -0.2170886 -14.424222 -17.484755 -113.92792
102907000 -17.39114 -113.25197 -0.21306746 -14.505396 -0.2082026 -14.410747 -17.388111 -113.47826
103406500 -17.303474 -113.49793 -0.22101444 -14.525816 -0.22879502 -14.528593 -17.360739 -113.14293
103906000 -17.267382 -113.78436 -0.21337824 -14.523662 -0.22250272 -14.547736 -17.360607 -113.51411
104405500 -17.259375 -113.52161 -0.21342562 -14.692685 -0.23065844 -14.558463 -17.351143 -114.04255
104905000 -17.269413 -114.08902 -0.2127112 -14.709861 -0.21122886 -14.75702 -17.165754 -113.56557
105404500 -17.165312 -113.51451 -0.22466239 -14.769509 -0.22373173 -14.929146 -17.250677 -114.29388
105904000 -17.181181 -113.70777 -0.22364689 -14.890389 -0.23680174 -14.965135 -17.124981 -113.99016
106403500 -17.130522 -113.9637 -0.21531495 -14.919925 -0.22338805 -14.975946 -17.146729 -113.88673
106903000 -17.109207 -113.83212 -0.22221528 -15.057134 -0.22779125 -14.97769 -17.079369 -114.04086
107402500 -17.057541 -114.51761 -0.23626117 -15.064001 -0.22420225 -15.118038 -17.070015 -114.05785
107902000 -17.029987 -114.0602 -0.21336672 -15.106485 -0.23380326 -15.094601 -16.957531 -114.47025
108401500 -16.950352 -114.28557 -0.21979855 -15.238871 -0.24111977 -15.231327 -16.951998 -114.18532
108901000 -16.916744 -114.30536 -0.22807659 -15.390136 -0.22724587 -15.270961 -16.950434 -114.39745
