!Agilent Technologies,E8362C,MY43020457,A.09.42.15
!Agilent E8362C: A.09.42.15
!Date: Friday, March 13, 2026 14:05:27
!Correction: S11(Full 2 Port(1,2)) 
!S21(Full 2 Port(1,2)) 
!S12(Full 2 Port(1,2)) 
!S22(Full 2 Port(1,2)) 
!S2P File: Measurements: S11, S21, S12, S22:
# Hz S  dB   R 50
10000000 -32.900661 -81.665009 -0.095014744 -1.1910765 -0.21500376 -1.6071718 -86.524384 112.5352
10309375 -39.869019 -82.358376 -0.0012677208 -1.0125709 -0.17261308 -1.998145 -89.81498 -121.65305
10618750 -34.517853 -79.404526 -0.063047118 -0.83491307 -0.24290101 -1.7760518 -97.650093 155.48474
10928125 -36.612671 -90.968758 -0.042624213 -1.1671772 -0.15476337 -2.0674694 -85.95977 -71.145729
11237500 -35.59024 -94.660286 -0.076887697 -1.1500963 -0.18667132 -2.48914 -92.103394 173.51083
11546875 -34.512787 -81.139687 -0.051433511 -1.4089203 -0.21405646 -1.6674911 -96.52124 -147.22943
11856250 -37.238995 -82.821899 -0.065231279 -1.4648138 -0.2118056 -2.0058103 -95.878952 132.50771
12165625 -33.546551 -104.7286 -0.0036893585 -1.4575889 -0.22304252 -1.7050542 -92.074783 173.23941
12475000 -34.678928 -93.433739 -0.040346414 -1.4534265 -0.22025403 -2.2564671 -91.152649 88.270592
12784375 -34.374012 -89.242172 -0.017806169 -1.6010982 -0.15794933 -2.1388195 -91.538918 -58.766346
13093750 -33.371964 -89.892128 -0.032624185 -1.5106251 -0.16048025 -2.1982591 -90.91848 166.8223
13403125 -32.416161 -101.16036 -0.040230762 -1.3535908 -0.23938224 -2.3840709 -93.70694 127.20518
13712500 -33.911594 -96.665588 -0.017252078 -1.6554914 -0.17430127 -2.6498606 -93.506935 -31.397455
14021875 -36.437824 -97.479919 -0.036231525 -1.5370901 -0.17392311 -2.1094718 -93.92292 -147.565
14331250 -33.462242 -103.51569 -0.032307085 -1.6739537 -0.22187601 -1.7662696 -87.556511 -14.95947
14640625 -35.531197 -115.35497 -0.010178235 -1.8507617 -0.1862127 -2.1820502 -90.061356 121.15742
14950000 -33.372082 -100.43913 -0.009570119 -1.9028175 -0.1851518 -2.2936747 -111.04948 -67.763954
15259375 -33.844994 -102.03365 -0.021045761 -1.6766276 -0.15118632 -2.075567 -89.515915 138.30812
15568750 -34.616894 -107.26201 0.032192733 -1.7845424 -0.15939434 -2.1002886 -91.045311 158.70953
15878125 -33.772301 -100.68803 -0.038438044 -1.9493285 -0.10187107 -2.5255728 -94.990211 26.518608
16187500 -33.976494 -117.10314 -0.022616709 -1.9691427 -0.18144959 -2.3056738 -92.315071 92.538887
16496875 -33.902203 -107.81076 -0.039623693 -2.0094657 -0.12951791 -2.4541209 -102.48569 140.36295
16806250 -33.252991 -110.535 -0.047457583 -2.0489712 -0.15899321 -2.6909466 -98.313461 -138.67316
17115625 -33.570877 -109.57584 -0.023696005 -2.0969524 -0.1226226 -2.5213637 -88.320091 156.23801
17425000 -33.026562 -104.9312 -0.010322169 -2.1299045 -0.12540904 -2.6579609 -93.947578 31.297386
17734375 -33.098053 -109.15937 -0.03003091 -2.1742713 -0.15786389 -2.5674882 -97.481613 -36.777489
18043750 -33.007458 -108.88348 -0.030606464 -2.170923 -0.11641683 -2.5855732 -90.513374 175.56601
18353125 -32.774681 -103.77786 -0.024306547 -2.2191601 -0.13236177 -2.8316367 -115.77122 89.738022
18662500 -33.783527 -108.49301 -0.018801978 -2.1246095 -0.12925793 -2.8323643 -102.73699 177.61438
18971875 -32.318737 -112.12696 -0.031431869 -2.1685252 -0.11582518 -2.8593607 -91.5019 58.813877
19281250 -33.299965 -111.21725 -0.025878375 -2.1891439 -0.12537429 -2.8389666 -95.59845 155.48257
19590625 -32.685177 -104.25171 -0.0054231761 -2.2878573 -0.095488086 -2.9469528 -97.352539 172.14574
19900000 -32.030437 -99.706795 -0.022480989 -2.4391403 -0.10185368 -2.8892257 -87.228256 99.257584
20209375 -32.626286 -105.37886 -0.010636506 -2.4836416 -0.098730072 -3.0629694 -96.24453 152.13606
20518750 -33.206978 -105.4217 -0.010181431 -2.3983147 -0.11669978 -3.1695163 -97.633125 87.013931
20828125 -32.880074 -105.50571 -0.011948148 -2.4414711 -0.11090891 -2.9284363 -102.65631 36.986202
21137500 -32.222385 -106.88538 -0.016501863 -2.3870203 -0.087457277 -3.2022913 -91.092247 124.02296
21446875 -32.136658 -106.90392 -0.0021606102 -2.5364611 -0.083868966 -3.0666609 -93.487404 122.2773
21756250 -32.577938 -101.67647 0.0055981255 -2.595288 -0.060510758 -3.4299028 -95.162148 95.220634
22065625 -32.615681 -103.63383 -0.0077959755 -2.4997325 -0.099657409 -3.2766111 -90.078583 173.21561
22375000 -31.702217 -106.46053 -0.025701432 -2.691555 -0.060769793 -3.4888368 -95.678017 153.73964
22684375 -31.856073 -105.86757 -0.0189451 -2.6139326 -0.060943261 -3.3595634 -95.391457 99.820786
22993750 -32.127758 -104.68916 -0.010000818 -2.7246864 -0.076673359 -3.6720061 -97.640167 159.15456
23303125 -31.874041 -102.89748 -0.016158102 -2.775476 -0.063387707 -3.7098703 -91.791534 129.69501
23612500 -31.343836 -100.80421 -0.015886623 -2.732954 -0.046534531 -3.5600553 -90.871887 164.81499
23921875 -31.676867 -105.75139 -0.016059091 -2.8180854 -0.07109037 -3.621855 -99.016968 100.14903
24231250 -31.961344 -105.78484 -0.019055659 -2.9508255 -0.046093106 -3.63937 -108.08566 106.85697
24540625 -31.447273 -105.19858 0.008527685 -2.9560373 -0.063204996 -3.832088 -93.692802 -97.389015
24850000 -31.632359 -103.86719 -0.012568426 -2.9562702 -0.04796445 -3.772676 -99.949738 157.65828
25159375 -31.394396 -104.95844 -0.0021516986 -3.2083879 -0.077977836 -4.0396156 -96.837585 -161.8412
25468750 -31.075624 -100.7247 -0.01640535 -3.0548069 -0.038648505 -3.9395182 -96.074287 131.0025
25778125 -31.758358 -102.51749 0.013452728 -3.1767368 -0.056175329 -4.0744896 -93.245453 123.77974
26087500 -30.888042 -105.77486 -0.019717511 -3.0576165 -0.042165779 -4.1739478 -92.091728 162.0182
26396875 -30.943586 -103.92379 -0.0019159069 -3.266911 -0.020345083 -4.2313986 -113.42836 27.536009
26706250 -31.223492 -101.54479 0.0070860554 -3.269104 -0.044947349 -4.345561 -85.345467 171.7459
27015625 -31.2917 -102.87321 0.0013155562 -3.2019968 -0.037993919 -4.2927051 -94.130524 -152.74268
27325000 -30.922234 -102.38601 0.010831281 -3.34758 -0.035172779 -4.5310059 -89.880112 145.67908
27634375 -31.035099 -103.11876 -0.0023820878 -3.3359704 -0.036496758 -4.3490748 -89.886429 121.54771
27943750 -30.604965 -101.15993 -0.0015843817 -3.3642519 -0.020043347 -4.5391212 -91.21051 162.88219
28253125 -30.442125 -101.52846 -0.011317718 -3.3538005 -0.01657838 -4.6725216 -96.534126 -159.81604
28562500 -30.241814 -104.61977 -0.0091516413 -3.5830455 -0.011343734 -4.5863957 -91.325615 123.35912
28871875 -30.221542 -98.923462 -0.022786321 -3.5390379 -0.03364028 -4.6540284 -101.78168 -45.495518
29181250 -30.261312 -100.60439 -0.014419124 -3.564676 -0.031696204 -4.6841621 -86.81501 -154.32938
29490625 -30.065847 -102.49577 -0.016670365 -3.5837648 -0.042248372 -4.7683921 -90.499146 -138.1454
29800000 -30.002447 -102.58791 -0.0076079131 -3.6554451 -0.012157952 -4.9598818 -93.772789 -12.69345
30109375 -30.150352 -102.16407 0.0056894375 -3.7514703 -0.02938509 -4.9712725 -90.597008 162.9391
30418750 -30.007608 -101.5301 -0.014070354 -3.7996848 -0.020230077 -5.0706782 -88.166016 151.58606
30728125 -29.980545 -103.86175 -0.017072259 -3.8119431 -0.013931014 -5.1892123 -91.479637 -171.80731
31037500 -30.028772 -102.64069 -0.016248472 -3.8748615 -0.025882466 -5.2128448 -93.078003 174.34351
31346875 -29.941603 -99.754906 -0.0011807709 -3.8880484 -0.0099385716 -5.2824454 -91.007851 -172.62074
31656250 -29.836901 -103.5126 0.00014083853 -3.9174366 -0.014538214 -5.4001045 -85.834358 -171.92903
31965625 -29.595631 -103.54877 -0.015829261 -3.8833771 -0.0084782233 -5.4769211 -93.653114 -155.64549
32275000 -29.506771 -103.55888 -0.01233352 -3.9640317 -0.02555494 -5.4843569 -86.669441 143.66072
32584375 -29.726864 -101.96378 -0.009586582 -4.0840502 -0.01939906 -5.6592894 -97.483543 -167.78651
32893750 -29.542015 -102.78008 -0.016398484 -4.1084552 -0.014223447 -5.7580543 -83.138451 179.93454
33203125 -29.36887 -100.79659 -0.02358189 -4.1355329 -0.0093684504 -5.8044395 -113.59467 118.35979
33512500 -29.0755 -102.05109 -0.010985874 -4.1815653 0.0013625808 -5.897049 -86.816307 132.32315
33821875 -29.208652 -102.04888 -0.0071221613 -4.2433729 0.0067115901 -5.9958978 -83.324585 139.1821
34131250 -29.16699 -101.88943 -0.018444551 -4.3079262 -0.017407861 -5.9369202 -89.273956 159.00929
34440625 -29.10078 -101.75925 -0.020725101 -4.3723116 -0.025714703 -6.0593333 -88.891678 -164.81381
34750000 -29.003069 -103.12659 -0.010029199 -4.279439 -0.0095720217 -6.1759868 -91.574989 154.37212
35059375 -28.895844 -102.78828 -0.0071593206 -4.3771868 -0.010060674 -6.152606 -85.14698 139.49826
35368750 -28.638506 -100.49873 -0.014444448 -4.3976622 -0.015230798 -6.3094053 -84.67012 154.30821
35678125 -29.050529 -102.39013 -0.0022362838 -4.5004277 -0.012270305 -6.3446808 -85.983315 157.81911
35987500 -28.82937 -102.52354 -0.015533997 -4.4786267 -0.010883595 -6.463429 -83.190147 125.09277
36296875 -28.752277 -101.74506 -0.008192515 -4.7269611 0.0042531793 -6.5132551 -88.052963 -150.53084
36606250 -28.575653 -102.52966 -0.0022053602 -4.6240048 -0.0056125792 -6.5956225 -89.161613 166.24112
36915625 -28.517025 -101.83181 -0.014230548 -4.5849419 -0.010464149 -6.7023625 -89.449883 174.83945
37225000 -28.729958 -102.79337 -0.013854138 -4.6677885 -0.0095287617 -6.7720513 -85.978035 -162.44646
37534375 -28.41132 -100.61962 -0.0058691888 -4.6463947 -0.014741174 -6.843884 -86.103615 -168.94157
37843750 -28.355652 -100.77425 -0.011032424 -4.7663121 -0.029653696 -6.9145494 -88.453789 144.28607
38153125 -28.229918 -103.41573 -0.015631381 -4.8159647 -0.0093287583 -6.9957948 -90.897774 176.51564
38462500 -28.155851 -101.70126 -0.01755698 -4.8791695 -0.01246122 -7.1028638 -89.003304 170.04416
38771875 -28.032225 -101.40662 -0.01521811 -4.9202561 -0.019627221 -7.1542788 -89.182106 146.54338
39081250 -28.073298 -100.26966 -0.012747331 -4.8746347 -0.029875429 -7.3051639 -85.913628 172.76918
39390625 -28.077707 -102.18948 -0.0072614779 -5.0134311 -0.020954993 -7.4091697 -84.520782 147.32402
39700000 -28.065159 -100.9838 -0.017910581 -5.035512 -0.025031246 -7.3237667 -84.068726 170.46753
40009375 -27.86722 -101.82716 -0.011578162 -5.0218768 -0.039937161 -7.4527378 -85.235374 -171.89738
40318750 -27.673637 -99.954697 -0.021737743 -4.990099 -0.033141155 -7.5817227 -84.224915 146.95967
40628125 -27.886332 -100.98073 -0.00145412 -5.1279635 -0.020386655 -7.6771054 -86.490906 159.60014
40937500 -27.755304 -101.67061 -0.013063243 -5.1664228 -0.026124703 -7.6446118 -86.441696 158.40883
41246875 -27.878788 -101.71629 -0.022557398 -5.1859493 -0.031653572 -7.7052259 -84.451141 146.95314
41556250 -27.543602 -100.70669 -0.0060626864 -5.2895231 -0.037744448 -7.7341022 -82.023399 162.14581
41865625 -27.646103 -101.27985 -0.021510672 -5.3502522 -0.053291023 -7.9517584 -81.372154 166.77223
42175000 -27.416412 -101.48675 -0.018068813 -5.3928804 -0.04486696 -8.0179434 -82.090179 170.35825
42484375 -27.406496 -100.52364 -0.027588574 -5.3271794 -0.047012363 -8.0154858 -83.622429 163.03065
42793750 -27.39716 -100.9919 -0.01727856 -5.3717422 -0.053996775 -8.0522814 -83.757248 164.23155
43103125 -27.400604 -100.64055 -0.014872247 -5.3822904 -0.048983268 -8.1857309 -84.454521 173.24887
43412500 -27.233271 -100.95218 -0.015793502 -5.5600758 -0.050035525 -8.1702204 -81.774712 175.33685
43721875 -27.316956 -100.74399 -0.025442071 -5.5224767 -0.060773876 -8.263834 -84.63784 174.61142
44031250 -27.258642 -99.890488 -0.023772387 -5.6176648 -0.067990817 -8.3983278 -82.45623 166.93365
44340625 -27.090586 -100.08598 -0.022468071 -5.6583228 -0.069418468 -8.4165869 -86.574913 154.78273
44650000 -26.952101 -100.84387 -0.021802686 -5.6443706 -0.065583527 -8.4585838 -84.660301 176.79723
44959375 -26.978367 -100.06396 -0.024234604 -5.7141299 -0.069795415 -8.5856466 -81.988388 162.55392
45268750 -27.148811 -99.840927 -0.0071155704 -5.897584 -0.098146573 -8.7061996 -75.430832 153.24005
45578125 -26.936451 -101.19934 -0.022231599 -5.7730565 -0.049179129 -8.6194086 -89.543159 155.09474
45887500 -26.861252 -99.678436 -0.020842806 -5.6334848 -0.085464016 -8.9361629 -77.996582 173.44162
46196875 -26.790083 -101.81148 -0.014544821 -5.8776345 -0.094558813 -8.8296499 -84.137741 -174.67392
46506250 -26.915024 -99.894814 -0.0034872312 -5.7160802 -0.094118595 -9.0562229 -80.100349 176.68529
46815625 -26.335161 -100.90662 -0.033689991 -5.8018732 -0.085185632 -9.0916357 -85.975693 -163.90671
47125000 -26.613886 -99.443192 -0.012809689 -6.1281347 -0.12277762 -9.1316109 -82.410446 173.80928
47434375 -26.13376 -99.453178 0.0016443515 -6.0652609 -0.078776717 -9.1800346 -75.840752 -179.75456
47743750 -25.994556 -98.715408 -0.0050424617 -6.037837 -0.080781028 -9.1178837 -78.566307 177.52605
48053125 -26.85268 -99.097435 -0.052881043 -6.1506538 -0.042899452 -9.200635 -81.28038 172.08011
48362500 -26.204805 -100.33935 -0.04793036 -6.086133 -0.070231311 -9.2847595 -76.921707 -133.35719
48671875 -26.39887 -101.79994 -0.049190976 -6.2239456 -0.12660967 -9.4389858 -76.268898 164.03006
48981250 -26.009653 -98.774857 -0.018846249 -6.1558309 -0.14184681 -9.3709755 -81.880592 -140.51973
49290625 -26.425745 -100.13023 -0.039727297 -6.2864799 -0.11520214 -9.4894638 -80.46212 157.54903
49600000 -25.93965 -99.351883 -0.029578412 -6.0151639 -0.10519397 -9.5243807 -84.091423 150.3532
49909375 -26.288639 -97.933167 -0.019835399 -6.3370557 -0.12042283 -9.5075092 -87.393867 -156.00789
50218750 -26.309336 -100.77155 -0.050992344 -6.2834206 -0.10224377 -9.7082376 -77.607231 -171.16428
50528125 -25.705687 -98.795692 -0.043216113 -6.5626459 -0.10597455 -9.4882317 -78.932259 172.56865
50837500 -25.587992 -98.683304 -0.028339982 -6.4542918 -0.10701534 -9.8295269 -80.09584 178.01891
51146875 -25.749542 -99.671196 -0.052789245 -6.383513 -0.16294141 -9.8575535 -76.301453 179.53006
51456250 -25.884407 -99.547081 -0.039030936 -6.6181507 -0.11974143 -9.8542986 -78.313881 -174.48322
51765625 -26.00424 -100.99282 -0.048147798 -6.6405864 -0.13983813 -9.9538984 -82.967056 -148.87782
52075000 -25.670094 -98.094559 -0.050779682 -6.5607114 -0.13253661 -10.080029 -79.610909 -177.58307
52384375 -25.91584 -100.25523 -0.063124411 -6.5123167 -0.15178426 -10.1504 -75.592339 -172.90784
52693750 -25.443106 -98.570427 -0.064295597 -6.7310386 -0.12746422 -10.239815 -78.759789 -173.01872
53003125 -25.696449 -99.359673 -0.030157397 -6.8463659 -0.14898565 -10.182812 -81.83474 146.60477
53312500 -25.363087 -98.305534 -0.032735534 -6.7549911 -0.13918355 -10.214454 -81.28923 -149.54025
53621875 -25.585453 -100.05482 -0.031235464 -6.9149642 -0.14761227 -10.212472 -85.368561 171.48384
53931250 -24.952797 -97.561211 -0.049089983 -6.8685951 -0.16260128 -10.279395 -83.692123 148.29358
54240625 -24.952417 -100.53751 -0.037928518 -6.9153366 -0.16157277 -10.399805 -76.929047 179.67671
54550000 -24.919313 -99.563789 -0.017503491 -6.9139481 -0.14836638 -10.371594 -76.513054 -178.87645
54859375 -25.265741 -98.051407 -0.050768547 -6.9658704 -0.17528909 -10.310977 -76.795235 174.77206
55168750 -25.149437 -100.26846 -0.051412895 -6.9074116 -0.18038592 -10.375945 -77.882225 179.34747
55478125 -24.880991 -100.00632 -0.064843558 -6.9609356 -0.17323203 -10.575799 -75.524071 -177.03023
55787500 -24.800688 -97.277122 -0.045494024 -7.0378509 -0.20996712 -10.638795 -76.877304 155.48949
56096875 -24.81546 -99.385162 -0.055904105 -7.0318751 -0.17161675 -10.36799 -81.344887 175.78365
56406250 -24.860426 -98.710739 -0.040721901 -7.2518072 -0.17950279 -10.575226 -75.67572 144.88472
56715625 -24.795946 -97.180893 -0.054992352 -7.2437887 -0.17916769 -10.814527 -82.597122 174.07753
57025000 -24.463242 -97.492706 -0.055174645 -7.2223582 -0.19065642 -10.552274 -74.56868 -178.13925
57334375 -24.619017 -100.19275 -0.039448526 -7.2697134 -0.19710447 -10.780973 -80.581314 172.80595
57643750 -24.453522 -98.902367 -0.040111136 -7.3864851 -0.20669715 -10.682946 -76.76931 149.07903
57953125 -24.619917 -101.27579 -0.026184352 -7.3670206 -0.20002775 -10.650359 -75.410988 158.65776
58262500 -24.155825 -100.53642 -0.02895581 -7.3196449 -0.20225751 -10.74557 -76.058258 159.77585
58571875 -24.519405 -101.77381 -0.055034142 -7.3766632 -0.21094695 -10.787337 -78.12394 175.4883
58881250 -24.45645 -100.2886 -0.061011549 -7.3782473 -0.21203963 -10.988732 -76.617691 150.55936
59190625 -24.2845 -101.14136 -0.041206628 -7.5365262 -0.18002711 -11.063411 -77.337624 173.03421
59500000 -24.111868 -99.608475 -0.037196837 -7.575666 -0.18311319 -10.966494 -75.374611 155.48538
59809375 -24.19416 -101.28067 -0.056438111 -7.5919695 -0.19425367 -10.882141 -77.534874 154.17662
60118750 -24.032162 -100.6346 -0.023022903 -7.5784645 -0.20249201 -11.075042 -74.213219 165.16025
60428125 -23.898485 -100.09209 -0.030420089 -7.6963663 -0.19962831 -11.228909 -77.155403 155.84424
60737500 -23.981585 -99.33316 -0.052232925 -7.6350451 -0.18563925 -11.196397 -73.978371 169.45494
61046875 -23.921427 -99.39669 -0.04696805 -7.7161474 -0.20099793 -11.313798 -78.667595 158.17711
61356250 -23.935574 -100.31512 -0.051588472 -7.8237443 -0.19227754 -11.283517 -73.981087 174.82874
61665625 -24.043354 -99.128815 -0.039853804 -7.5978904 -0.20511788 -11.306417 -76.209793 145.22601
61975000 -23.895771 -99.332695 -0.05533066 -7.9186859 -0.20862782 -11.499196 -75.114258 168.65372
62284375 -23.785608 -99.209007 -0.036151394 -7.8350749 -0.2117072 -11.346335 -76.705521 145.76462
62593750 -23.735687 -101.39235 -0.045678306 -7.8099713 -0.21991298 -11.376726 -78.169662 139.07367
62903125 -23.609333 -101.64159 -0.050667103 -7.7432833 -0.21668273 -11.324654 -75.101768 163.06053
63212500 -23.592087 -99.270821 -0.050739594 -7.9599152 -0.23520285 -11.435097 -77.217163 152.69432
63521875 -23.459093 -101.56647 -0.078045607 -8.0428734 -0.20155831 -11.553854 -75.663719 163.18948
63831250 -23.656927 -100.99639 -0.067686394 -7.9786849 -0.21685584 -11.633698 -75.786629 158.14487
64140625 -23.549278 -99.926239 -0.054028917 -8.1176891 -0.21269177 -11.68602 -74.471031 165.25696
64450000 -23.362604 -100.43719 -0.05880617 -8.0599985 -0.21649581 -11.571293 -74.399078 173.62268
64759375 -23.415331 -100.30897 -0.066792339 -8.0963354 -0.19591263 -11.764709 -77.89756 154.81151
65068750 -23.216751 -101.6021 -0.069378845 -8.1029196 -0.21724826 -11.746029 -73.602173 148.2795
65378125 -23.069574 -100.02724 -0.05544908 -8.1344767 -0.23615241 -11.858107 -76.167397 -174.1604
65687500 -23.502108 -102.2631 -0.072810613 -8.1326265 -0.21119221 -11.913975 -76.168472 159.48149
65996875 -23.106197 -101.15171 -0.052997552 -8.3248644 -0.22589274 -11.741383 -79.370789 141.16249
66306250 -22.885944 -101.23394 -0.04249401 -8.2655935 -0.22521079 -11.83525 -76.346466 169.47076
66615625 -22.925493 -101.4439 -0.038830992 -8.4317808 -0.22180039 -11.895713 -78.655899 171.0062
66925000 -22.860292 -101.64678 -0.051434498 -8.493145 -0.21398689 -11.905357 -75.098618 161.31456
67234375 -23.192007 -100.55659 -0.044241466 -8.3928719 -0.22327037 -11.98775 -74.893021 139.13892
67543750 -22.962807 -101.70946 -0.072740436 -8.4077892 -0.20599911 -12.012529 -76.008888 150.43147
67853125 -23.26622 -102.09553 -0.067054391 -8.5092802 -0.23502798 -12.128288 -75.525078 171.31842
68162500 -22.931761 -102.37139 -0.052829918 -8.5029144 -0.20187448 -12.311614 -73.576019 162.09508
68471875 -22.92057 -102.59355 -0.054012757 -8.5733757 -0.21212193 -12.206101 -76.71904 169.25241
68781250 -22.767212 -101.15752 -0.06236998 -8.4244337 -0.20607828 -12.158462 -72.910141 160.45007
69090625 -22.808207 -102.12143 -0.060414985 -8.5585365 -0.22459568 -12.318564 -75.121185 163.71332
69400000 -22.710114 -102.40051 -0.057643447 -8.618227 -0.19473077 -12.404692 -75.61338 171.64362
69709375 -22.59457 -103.35563 -0.069827221 -8.5748882 -0.21982557 -12.392638 -74.48172 158.11392
70018750 -22.646345 -101.95472 -0.072483249 -8.7389879 -0.22223619 -12.352995 -76.613846 167.74187
70328125 -22.558083 -102.72401 -0.061574575 -8.7602167 -0.23694201 -12.445707 -73.689583 170.1707
70637500 -22.614283 -101.92952 -0.067868888 -8.7490292 -0.20438978 -12.35612 -73.759331 173.82538
70946875 -22.461308 -102.70033 -0.063739397 -8.8222094 -0.24061356 -12.54718 -75.57103 154.41943
71256250 -22.449066 -103.13649 -0.048805274 -8.8349552 -0.23836882 -12.632404 -78.494492 162.40178
