!Agilent Technologies,E8362C,MY43020457,A.09.42.15
!Agilent E8362C: A.09.42.15
!Date: Friday, March 13, 2026 14:00:01
!Correction: S11(Full 2 Port(1,2)) 
!S21(Full 2 Port(1,2)) 
!S12(Full 2 Port(1,2)) 
!S22(Full 2 Port(1,2)) 
!S2P File: Measurements: S11, S21, S12, S22:
# Hz S  dB   R 50
10000000 -33.169167 -98.991348 -0.067758389 -0.77391016 -0.020936979 -1.245756 -92.070953 89.993324
10309375 -34.302944 -81.154236 0.031645972 -0.90731382 -0.1286269 -2.050364 -96.355026 -145.11269
10618750 -32.266884 -76.907066 -0.03214493 -0.98345375 -0.26276654 -2.0625055 -95.314377 154.07918
10928125 -36.007343 -86.24173 0.0028549675 -1.018476 -0.15137105 -1.8681804 -88.212166 -79.122849
11237500 -32.397587 -102.84849 -0.043882117 -0.84708887 -0.14351781 -2.4302983 -94.511833 177.86465
11546875 -36.355072 -80.347313 -0.053883601 -0.98830104 -0.090281121 -1.8828859 -95.593651 -126.86152
11856250 -39.537899 -70.085632 -0.028134465 -1.4164314 -0.16822027 -1.822131 -95.609055 133.69678
12165625 -34.549488 -97.815567 0.029189896 -1.4413915 -0.20108534 -2.0173552 -93.648727 154.09795
12475000 -33.932297 -96.543602 -0.014374897 -1.45604 -0.15584621 -1.9476604 -92.754829 77.14946
12784375 -34.803661 -92.653351 0.0057015484 -1.4936665 -0.15005264 -2.1712849 -91.545227 -50.940071
13093750 -34.439621 -85.867332 -0.0049433396 -1.6492888 -0.17196703 -2.1681123 -91.056618 174.61201
13403125 -33.596966 -89.371597 -0.0059727291 -1.5935813 -0.19771256 -2.3559599 -94.064529 130.66144
13712500 -32.977371 -87.836403 -0.017331576 -1.7743865 -0.17882687 -2.4907846 -93.583786 -42.404308
14021875 -38.180767 -83.928207 -0.025442107 -1.5439643 -0.14040452 -2.4605317 -94.329735 -138.33141
14331250 -36.86121 -92.216225 -0.0021738866 -1.6579214 -0.15484093 -2.2266099 -88.93663 -2.6941442
14640625 -35.702438 -95.482124 0.024604963 -2.0743241 -0.16834654 -2.3672178 -90.275246 141.55557
14950000 -32.417957 -86.26889 0.018617854 -1.8426256 -0.12462641 -2.2796674 -111.98895 -55.711197
15259375 -34.61483 -97.814926 -0.0036445791 -1.6740711 -0.14798664 -2.278384 -89.38591 129.42345
15568750 -34.669846 -108.18838 0.036067121 -1.7785686 -0.16953692 -2.2176418 -89.577545 159.97409
15878125 -34.437706 -106.07651 -0.0048790579 -2.0429163 -0.10193612 -2.3269796 -96.840134 32.831566
16187500 -33.728718 -102.57569 -0.0097171972 -1.9393678 -0.13948409 -2.4965494 -92.280136 101.4903
16496875 -34.952675 -108.16634 -0.034565382 -2.1681387 -0.1116342 -2.4571729 -103.13957 145.9377
16806250 -33.721523 -104.85681 -0.039682485 -1.8775561 -0.093773693 -2.6367478 -99.895729 -128.79613
17115625 -33.720062 -100.43398 -0.022953257 -2.1023588 -0.10213761 -2.7340126 -87.99276 162.12808
17425000 -33.73304 -100.69632 -0.0059762285 -2.1903546 -0.11424464 -2.6043854 -94.106026 30.063562
17734375 -32.993103 -104.22316 0.0034830822 -2.0874689 -0.12719539 -2.6686282 -97.677948 -30.156416
18043750 -34.064678 -100.93532 -0.015285389 -2.2057877 -0.098575763 -2.6742785 -91.056755 -176.63275
18353125 -33.346062 -100.45594 0.018306432 -2.2140481 -0.069542617 -2.8171005 -116.62454 106.4036
18662500 -33.955593 -96.905037 0.0085168481 -2.1085517 -0.10968054 -2.7991743 -103.46261 -179.11552
18971875 -32.807331 -106.10035 0.012474648 -2.1772034 -0.089726172 -2.9318004 -91.824196 65.438591
19281250 -33.298656 -104.67766 -0.0051132501 -2.3127 -0.092292197 -3.0419364 -94.827431 165.7785
19590625 -32.95005 -101.27348 0.015077109 -2.4165041 -0.078314818 -2.8804038 -98.13298 171.12529
19900000 -32.747955 -95.455338 0.010069981 -2.5124207 -0.084434271 -2.880198 -88.058441 105.04558
20209375 -33.432209 -103.42602 0.0016203689 -2.4092693 -0.076467894 -2.9475865 -96.752174 158.91238
20518750 -33.981579 -98.166153 0.0039238883 -2.4565406 -0.095247045 -2.9610825 -98.467125 90.485985
20828125 -33.255085 -94.448952 0.0016525201 -2.5213566 -0.080734797 -3.088114 -102.6411 42.312908
21137500 -32.809456 -97.801682 0.016093142 -2.4422615 -0.074506938 -3.3420169 -90.489342 127.66805
21446875 -32.625343 -100.18598 -0.003793031 -2.6369252 -0.09076716 -3.1507838 -93.53701 124.07616
21756250 -33.007927 -100.16915 0.012139665 -2.61287 -0.045984454 -3.3789003 -95.525139 99.278908
22065625 -33.300579 -99.454788 -0.0067131454 -2.5675981 -0.050588243 -3.2306609 -90.55616 -179.83595
22375000 -32.608433 -100.36349 -0.00065646792 -2.7006996 -0.036821648 -3.5291052 -95.774574 158.88707
22684375 -31.693047 -100.27571 0.0052862675 -2.763211 -0.031583671 -3.3691015 -95.787552 106.33819
22993750 -32.501339 -100.0942 0.013703559 -2.7938969 -0.038307093 -3.7202859 -97.568756 165.34508
23303125 -31.718824 -99.63076 0.0098957103 -2.7603641 -0.046432987 -3.5901575 -92.414406 131.61293
23612500 -31.69759 -93.806961 0.0033985518 -2.8481014 -0.039654307 -3.5191672 -90.707306 168.65146
23921875 -32.476147 -99.98439 -0.0027074409 -2.9026549 -0.060441215 -3.629492 -99.324203 100.96882
24231250 -31.773031 -99.394173 0.0010596154 -2.9586384 -0.054822627 -3.864928 -107.65468 104.05047
24540625 -31.763384 -96.258682 0.011932442 -2.9439394 -0.039009321 -3.8182077 -93.767365 -94.246063
24850000 -32.440735 -99.516182 -0.0023084602 -3.0172608 -0.016150216 -3.8486989 -100.29978 163.50446
25159375 -31.573505 -100.26632 0.015947152 -3.1803546 -0.028331591 -3.9003263 -97.641083 -156.4343
25468750 -31.569431 -95.289063 -0.0032892374 -3.0403318 -0.020685518 -3.9677372 -96.204987 133.84077
25778125 -31.470642 -101.27586 0.022041829 -3.3232656 -0.025034448 -4.1219006 -93.165947 129.287
26087500 -31.088047 -99.417839 0.0034580587 -3.2200379 -0.025044484 -4.1041713 -92.348999 165.0979
26396875 -31.172005 -100.44814 0.0069183172 -3.2006667 -0.021288898 -4.0443368 -114.06087 29.171127
26706250 -31.282869 -101.20335 0.021192936 -3.2355433 -0.017660208 -4.2473478 -85.60173 175.31259
27015625 -31.127138 -99.33667 0.008510136 -3.3640313 -0.020034725 -4.3543372 -94.094376 -151.90504
27325000 -31.075598 -97.901131 0.022161571 -3.3751292 -0.001900978 -4.3699231 -90.523216 149.85779
27634375 -30.689974 -97.375938 0.021307148 -3.4518206 -0.007911264 -4.3996158 -90.043404 125.8801
27943750 -30.844936 -97.879333 0.010946674 -3.3493776 -0.0028318265 -4.5518804 -91.20076 165.73912
28253125 -30.615959 -96.94606 0.0069231894 -3.435971 0.0073808068 -4.5771408 -96.910347 -155.25459
28562500 -30.642706 -98.520683 0.026243612 -3.557085 0.0031070372 -4.584722 -91.163818 127.3051
28871875 -30.316725 -98.478592 0.0080372607 -3.5694351 -0.0042314213 -4.7181039 -101.62776 -40.331844
29181250 -30.063799 -99.365479 0.0067188791 -3.6279476 0.0046477485 -4.7767425 -86.857651 -148.04958
29490625 -30.351124 -99.713486 0.010647452 -3.6189663 -0.0043785744 -4.7755318 -90.585922 -133.22508
29800000 -30.189205 -99.136436 0.0022025995 -3.6324015 0.0016552488 -4.9892135 -93.72612 -8.8528099
30109375 -30.237705 -99.106071 0.010224802 -3.7701151 0.013401848 -4.933929 -91.124748 166.12546
30418750 -30.114338 -97.742477 0.015694551 -3.8145411 -0.0011121741 -5.1264248 -87.894875 152.66443
30728125 -30.107203 -99.659157 0.0088328384 -3.7461317 0.005266407 -5.2097139 -91.60096 -168.79829
31037500 -30.159477 -98.857872 0.0041209478 -3.879667 0.0031552182 -5.2008338 -93.489853 177.98669
31346875 -29.725605 -98.58799 0.0016906075 -3.9123747 0.0072038858 -5.2918024 -90.845848 -169.5593
31656250 -30.094469 -99.548828 0.012277444 -3.9352367 0.0031140773 -5.4001989 -86.030205 -169.36562
31965625 -29.696575 -99.573174 0.0044506299 -3.8561707 0.015143095 -5.5078688 -93.745743 -153.48952
32275000 -29.511353 -100.71043 -0.0021338414 -4.0085835 0.0091710538 -5.5175953 -86.751747 148.07791
32584375 -29.60762 -98.474197 0.0055942065 -4.0396867 0.001817695 -5.6667356 -97.612343 -163.54877
32893750 -29.633423 -99.220032 0.011032529 -4.1194315 0.011625587 -5.7505145 -83.258362 -177.51959
33203125 -29.56773 -98.923203 0.003536565 -4.1009269 0.017895507 -5.7209897 -113.8291 120.24583
33512500 -29.300365 -99.225456 0.013207621 -4.1253271 0.020275159 -5.8420267 -87.1287 135.547
33821875 -29.160709 -99.384247 0.0016682569 -4.2249794 0.022238897 -5.92169 -83.474487 141.6154
34131250 -29.159187 -101.25692 -0.0047806948 -4.3678589 0.011600019 -5.8941979 -89.34407 161.73665
34440625 -29.188213 -98.467644 -0.0027877213 -4.3695936 0.015298757 -6.0601325 -89.058266 -160.66444
34750000 -28.926102 -100.55098 -0.0022757365 -4.3371811 0.019019714 -6.1129408 -91.689613 156.91144
35059375 -29.014627 -98.015724 0.010570676 -4.412847 0.021250997 -6.157671 -85.338699 142.36223
35368750 -28.984262 -98.665611 0.0090674302 -4.3441534 0.018569959 -6.1900396 -84.848381 157.78409
35678125 -28.898977 -101.04298 0.0079198899 -4.4785047 0.027449682 -6.379056 -85.93956 161.44435
35987500 -28.841732 -100.64918 0.001369866 -4.4677868 0.0067376606 -6.4480691 -83.693901 126.38566
36296875 -28.748844 -100.21996 0.0021624872 -4.6669302 0.015867492 -6.5513296 -88.035645 -148.10684
36606250 -28.812456 -101.74823 0.020840129 -4.586462 0.011160786 -6.5568299 -89.522156 168.2753
36915625 -28.639858 -99.714943 -0.00058158278 -4.5894628 0.015493035 -6.667788 -89.575233 177.42738
37225000 -28.785854 -99.911064 1.1161176e-005 -4.7003002 0.0059549743 -6.7550654 -86.209435 -161.65402
37534375 -28.546417 -98.382111 -0.00075970346 -4.7161579 0.008737158 -6.7789845 -86.222237 -166.97635
37843750 -28.471598 -99.351738 0.008794629 -4.7678132 0.015336637 -6.9099317 -88.433327 147.25185
38153125 -28.413733 -100.19926 0.0020893062 -4.8242927 0.019811818 -6.9645367 -91.210991 178.27925
38462500 -28.490522 -99.827988 0.0026693172 -4.8960457 0.010524205 -7.0666304 -89.146629 172.78729
38771875 -28.083935 -100.10684 -0.0044843783 -4.8748679 0.013522243 -7.1519513 -89.400658 150.40262
39081250 -28.236126 -99.893814 0.0092488239 -4.8372135 0.009058536 -7.2599277 -86.148659 176.02083
39390625 -28.13195 -99.89463 0.011130042 -5.0096083 -5.623317e-005 -7.3328929 -84.661484 149.22066
39700000 -28.09252 -99.810822 0.003394566 -5.0595245 0.0064581181 -7.2734165 -84.199745 173.00085
40009375 -28.041346 -99.291183 0.003185652 -4.9927711 0.0001598212 -7.4789 -85.35479 -169.12321
40318750 -27.854673 -98.741852 -0.0026443508 -4.9836345 -0.015415996 -7.4793911 -84.271843 148.41856
40628125 -27.858223 -98.142548 0.00538436 -5.1270075 0.0069994298 -7.6001959 -86.851112 161.93701
40937500 -27.913143 -99.743782 -0.0044131801 -5.1676526 -0.012719782 -7.6254034 -86.534813 159.71823
41246875 -27.821392 -99.783203 -0.0024296148 -5.1703548 -0.0056608212 -7.7603946 -84.481964 147.94333
41556250 -27.609404 -98.690804 0.0065955441 -5.2948365 -0.021860693 -7.7066555 -82.227524 162.7269
41865625 -27.715687 -99.183212 -0.0078373766 -5.2822671 -0.022040902 -7.8808618 -81.612038 168.92639
42175000 -27.576208 -99.769409 -0.0030530829 -5.2925391 -0.022487203 -7.9690285 -82.317688 172.23517
42484375 -27.571825 -99.692902 -0.0044209352 -5.3413706 -0.021647612 -8.014657 -83.641342 164.72543
42793750 -27.496201 -99.370583 -0.0040325103 -5.3963504 -0.027406963 -7.9863071 -83.99305 165.88202
43103125 -27.485453 -98.997429 0.0032405739 -5.4180651 -0.015577219 -8.1320724 -84.675095 175.57759
43412500 -27.440794 -99.209702 -0.0020988593 -5.5077333 -0.025023665 -8.1349373 -81.821655 177.56181
43721875 -27.262062 -99.11261 -0.0084635243 -5.5464735 -0.028443839 -8.2177486 -84.807541 177.10829
44031250 -27.40288 -98.626038 -0.006535721 -5.6031857 -0.036103461 -8.3508253 -82.619255 169.2092
44340625 -27.223484 -98.986343 0.0035858077 -5.6285634 -0.045864213 -8.3698416 -86.683456 156.32417
44650000 -27.055077 -99.482094 -0.0049766083 -5.6672544 -0.043136276 -8.4376936 -84.717567 178.3371
44959375 -27.111187 -99.325356 -0.0074291429 -5.7332349 -0.037872843 -8.5475454 -82.142952 164.83693
45268750 -27.164843 -99.659744 0.0075971228 -5.8496923 -0.037287623 -8.636528 -75.57579 156.04018
45578125 -27.078363 -100.93562 0.0054845596 -5.8643303 -0.03773915 -8.6475639 -89.3507 154.00514
45887500 -27.020674 -99.290199 0.011522154 -5.6299825 -0.042895082 -8.8048496 -78.4627 175.55121
46196875 -26.774767 -101.24151 -0.0061740638 -5.8116994 -0.038597267 -8.7454491 -84.162636 -168.72351
46506250 -26.93499 -99.977257 0.0099999635 -5.7714119 -0.047185566 -8.999464 -80.303436 -179.57018
46815625 -26.447906 -97.331909 -0.0010030186 -5.89395 -0.05763758 -8.9569244 -85.93074 -161.9857
47125000 -26.932678 -98.757103 -0.020115297 -5.9457402 -0.08932998 -8.9826717 -82.414742 175.16699
47434375 -26.406557 -98.370743 0.0035755364 -6.0480299 -0.061734129 -9.0111141 -76.180443 -178.45659
47743750 -26.458002 -97.107605 -0.015436453 -6.0519171 -0.05458672 -9.0274277 -78.789833 177.93947
48053125 -26.828634 -99.118446 -0.017414043 -6.0019102 -0.063655749 -9.0751019 -81.343033 172.04503
48362500 -26.153547 -98.354218 -0.0056907749 -6.159121 -0.048882131 -9.2410984 -76.762627 -132.49985
48671875 -26.157873 -99.369057 0.0016239923 -6.1528158 -0.071874805 -9.4126186 -76.330688 168.29108
48981250 -26.518492 -93.261742 0.0068695024 -6.0481868 -0.12773739 -9.4856482 -81.92749 -137.74849
49290625 -26.946112 -99.779755 0.0024391294 -6.1044879 -0.093168937 -9.4111786 -80.579788 159.6602
49600000 -26.011972 -96.712311 -0.018626381 -6.0353336 -0.11153328 -9.3881502 -84.274178 149.1627
49909375 -26.351763 -98.475563 -0.013564833 -6.2808347 -0.088397287 -9.2890987 -87.766296 -152.92004
50218750 -26.481169 -98.485497 -0.025505641 -6.3113704 -0.11062259 -9.5672321 -77.849838 -171.84274
50528125 -26.053453 -97.749901 0.001995327 -6.475626 -0.084250987 -9.5409565 -78.964676 174.21263
50837500 -26.119373 -98.287109 -0.0034343742 -6.4243512 -0.097374961 -9.5519943 -80.570343 179.98323
51146875 -25.649509 -96.373268 -0.017578412 -6.439548 -0.14242344 -9.6391163 -76.534546 -178.54137
51456250 -25.787895 -95.987198 -0.028504469 -6.5391827 -0.092663534 -9.6930428 -78.681793 -173.2355
51765625 -25.646549 -100.05965 -0.036806989 -6.660315 -0.10980073 -9.8828182 -83.14579 -149.03102
52075000 -25.834925 -96.396133 -0.033457983 -6.5387053 -0.095498182 -10.128045 -79.625679 -174.44276
52384375 -26.185268 -99.963921 -0.015862502 -6.5750113 -0.12606235 -9.952775 -76.082199 -171.54735
52693750 -25.675016 -97.49218 -0.028511457 -6.6199985 -0.10816724 -10.218361 -78.890396 -169.14641
53003125 -25.897507 -99.250183 0.0018872808 -6.6736507 -0.10009166 -10.10469 -82.114571 149.19154
53312500 -25.489275 -98.062004 -0.0087887757 -6.6637459 -0.12544024 -10.11912 -81.521088 -149.80167
53621875 -25.518969 -99.150475 0.0047833831 -6.7894316 -0.13980909 -10.075423 -85.348671 172.77261
53931250 -25.228558 -95.504295 -0.047567289 -6.7801042 -0.15514202 -10.160784 -83.76413 148.47554
54240625 -25.341068 -98.105865 -0.0087040113 -6.9227629 -0.13039675 -10.345693 -77.26004 -178.58456
54550000 -25.170906 -97.221321 -0.0075254212 -6.9925375 -0.13823925 -10.226608 -76.58551 -179.10869
54859375 -25.674419 -95.943359 -0.01824962 -6.8788414 -0.12495146 -10.307344 -76.969025 177.66
55168750 -25.243597 -96.772438 -0.027928993 -6.86655 -0.13265713 -10.337493 -77.95472 -179.57478
55478125 -24.911253 -99.666618 -0.0377337 -6.9632001 -0.16448985 -10.299087 -76.08123 -175.63168
55787500 -25.099154 -95.98288 -0.025365405 -7.0780578 -0.15798673 -10.573357 -77.03315 156.83954
56096875 -24.71163 -98.49884 -0.04153816 -7.025671 -0.15036693 -10.297717 -81.248962 177.02493
56406250 -25.012747 -98.110542 -0.027508495 -7.1594043 -0.15477289 -10.591273 -75.869659 145.79926
56715625 -24.808298 -95.709892 -0.034550082 -7.2500596 -0.16746429 -10.598666 -82.615433 173.95248
57025000 -24.845493 -98.152046 -0.035081666 -7.2114434 -0.15047885 -10.425034 -74.781479 -175.24768
57334375 -24.698097 -98.618042 -0.025693038 -7.0987592 -0.16584764 -10.789478 -80.733482 174.4588
57643750 -24.535149 -98.301315 -0.010264371 -7.2586999 -0.19555217 -10.462251 -77.062248 149.95509
57953125 -24.774803 -99.332634 -0.024989994 -7.2370882 -0.14751199 -10.513717 -75.550911 161.92131
58262500 -24.441702 -100.44977 -0.010458622 -7.2262421 -0.20539059 -10.707136 -76.211075 159.55583
58571875 -24.658178 -97.777779 -0.02170532 -7.3654027 -0.16227829 -10.558029 -78.513496 178.95227
58881250 -24.42226 -98.528374 -0.045789115 -7.2553678 -0.15699051 -10.717653 -76.920036 151.45332
59190625 -24.495785 -99.971031 -0.0091765812 -7.4021015 -0.15181778 -10.885534 -77.551323 175.18196
59500000 -24.3437 -98.874931 -0.0261907 -7.5172305 -0.16028255 -10.70437 -75.850471 157.00688
59809375 -24.431808 -98.631989 -0.027864736 -7.5410838 -0.17514697 -10.876682 -77.614052 155.71625
60118750 -24.297598 -99.770363 -0.032059819 -7.5926423 -0.18773922 -10.922473 -74.431633 166.04236
60428125 -24.335203 -98.691582 -0.020570463 -7.7083039 -0.18420742 -11.186492 -77.429085 157.31082
60737500 -24.055025 -97.541336 -0.042660546 -7.6226306 -0.16387442 -11.046018 -74.111244 171.44861
61046875 -24.020121 -97.446594 -0.030947043 -7.5828009 -0.17637326 -11.219527 -78.674637 159.66867
61356250 -24.122671 -99.122742 -0.030482473 -7.6001129 -0.18043894 -11.097525 -74.376518 174.93892
61665625 -23.889858 -98.751099 -0.018695243 -7.586432 -0.18014386 -11.324629 -76.249451 147.5873
61975000 -24.1826 -98.998062 -0.034233347 -7.7837358 -0.1564687 -11.413405 -75.319901 171.54619
62284375 -23.989155 -98.966705 -0.02562152 -7.7867503 -0.19947942 -11.178275 -76.816109 145.83775
62593750 -23.820328 -98.042641 -0.031666592 -7.6455636 -0.17987844 -11.37046 -78.421036 140.52333
62903125 -23.698801 -99.996223 -0.023915015 -7.7544956 -0.16983528 -11.394318 -75.193565 165.51909
63212500 -23.785892 -99.190231 -0.027382962 -7.8593717 -0.20271942 -11.457116 -77.321098 153.71454
63521875 -23.74968 -99.568428 -0.03742836 -7.8050227 -0.18168685 -11.437657 -75.768051 165.1136
63831250 -23.640841 -98.906975 -0.052466273 -7.9219284 -0.17588863 -11.590986 -75.896606 160.18091
64140625 -23.730841 -99.247467 -0.038009908 -8.0410948 -0.19331831 -11.664667 -74.720787 166.68623
64450000 -23.461861 -99.782677 -0.029807318 -8.0582695 -0.19319329 -11.594587 -74.455956 175.22762
64759375 -23.597435 -98.069923 -0.047982309 -8.1351452 -0.17686909 -11.667206 -78.081993 155.82123
65068750 -23.312742 -100.18291 -0.032789394 -8.1780519 -0.17348339 -11.698943 -73.677925 149.52876
65378125 -23.350935 -99.045029 -0.039208855 -8.1771431 -0.18966286 -11.718892 -76.16584 -172.05817
65687500 -23.526968 -99.423203 -0.054943897 -8.0988617 -0.17723748 -11.696491 -76.450317 161.97014
65996875 -23.293541 -100.45127 -0.044029158 -8.1653118 -0.20435159 -11.69643 -79.476868 141.78517
66306250 -23.026484 -99.473251 -0.032726519 -8.3254852 -0.18691485 -11.799975 -76.412552 171.03148
66615625 -23.207064 -101.26329 -0.032233305 -8.31952 -0.18016657 -11.730232 -78.886185 172.45407
66925000 -23.059954 -100.06078 -0.040475667 -8.2611217 -0.17103919 -11.757275 -75.278687 163.57515
67234375 -23.285851 -101.39799 -0.058383085 -8.3521748 -0.19194348 -11.939881 -74.93924 140.67897
67543750 -23.314707 -100.09885 -0.044884332 -8.419754 -0.20303753 -12.041604 -76.075417 151.57172
67853125 -23.279043 -101.10706 -0.053590313 -8.541481 -0.20721437 -11.964643 -75.726051 171.72249
68162500 -23.05003 -101.3104 -0.057673216 -8.3102169 -0.18131575 -12.146104 -73.841461 163.28561
68471875 -22.998758 -100.81306 -0.03567411 -8.4687653 -0.19983551 -12.117219 -76.823387 170.89571
68781250 -23.017731 -100.42583 -0.034562416 -8.4696341 -0.19765589 -12.166587 -72.892731 161.32918
69090625 -22.947292 -100.50283 -0.027573202 -8.5555944 -0.19978598 -12.318318 -75.125481 164.95227
69400000 -22.82165 -100.58076 -0.044553343 -8.5770578 -0.16451935 -12.351991 -75.810783 173.20973
69709375 -22.8346 -103.47033 -0.057752673 -8.6790352 -0.19987166 -12.333641 -74.530655 160.06842
70018750 -22.781893 -100.8935 -0.067341045 -8.7069082 -0.20163196 -12.266588 -76.8162 168.80504
70328125 -22.808149 -101.28677 -0.040792257 -8.7362061 -0.18772668 -12.269541 -73.921509 172.27608
70637500 -22.607401 -101.40097 -0.053715151 -8.6697865 -0.17714863 -12.310123 -73.963089 174.85944
70946875 -22.80018 -100.31235 -0.045935404 -8.8036671 -0.1973796 -12.55809 -75.571442 156.13309
71256250 -22.63455 -101.34113 -0.024837103 -8.8247347 -0.20792793 -12.544433 -78.69558 164.46292
