!Agilent Technologies,E8362C,MY43020457,A.09.42.15
!Agilent E8362C: A.09.42.15
!Date: Friday, March 13, 2026 14:56:30
!Correction: S11(Full 2 Port(1,2)) 
!S21(Full 2 Port(1,2)) 
!S12(Full 2 Port(1,2)) 
!S22(Full 2 Port(1,2)) 
!S2P File: Measurements: S11, S21, S12, S22:
# Hz S  dB   R 50
10000000 -0.031224338 178.91887 -43.657673 -70.835068 -37.409962 5.3437443 -0.090592742 178.51968
10499500 0.093600191 178.83113 -44.737221 59.603928 -38.912594 -86.449348 0.028093992 179.29373
10999000 -0.015337388 179.00777 -45.09885 84.126762 -41.443226 31.727772 0.016979141 178.69589
11498500 -0.016652364 179.35472 -43.674023 7.4639907 -41.201084 -157.95627 -0.026248734 178.94513
11998000 -0.04230966 179.25415 -51.040176 61.071304 -43.316067 93.865906 0.042342413 179.43625
12497500 0.075331151 178.7733 -62.319122 44.687286 -50.391903 111.67933 -0.019059481 178.75671
12997000 0.012311104 178.56267 -52.755028 88.482666 -52.296547 99.949326 -0.058461715 179.00644
13496500 0.011718639 178.65474 -50.380016 -65.091469 -58.309032 40.381611 0.014557979 178.91072
13996000 0.0075376248 178.32983 -53.305077 34.328838 -61.303753 -141.85257 0.002502125 178.68413
14495500 0.025365259 178.54037 -60.38129 -63.352478 -48.533535 9.7284584 -0.051497824 178.61737
14995000 -0.013682858 178.5751 -55.106789 -54.403816 -48.60331 179.77324 -0.025948949 178.40535
15494500 0.026351506 178.61217 -52.903683 94.583054 -52.364983 117.22547 -0.023814775 178.60799
15994000 -0.0043823654 178.49373 -62.501446 30.797333 -58.337101 -114.25251 0.036458626 178.26976
16493500 -0.010031538 178.35793 -51.841774 -23.376125 -52.355766 55.453041 -0.0010472925 178.53435
16993000 -0.00066361803 178.42993 -50.334866 24.815237 -52.096748 -37.621574 -0.012422585 178.3004
17492500 -0.034932937 178.19243 -53.150852 12.529927 -53.136425 -33.566071 -0.014491987 178.18443
17992000 0.0035457322 178.12106 -55.624317 19.377464 -59.826229 112.49253 -0.017351309 178.15167
18491500 -0.0036618214 178.00632 -52.089268 9.6451979 -54.636021 -9.6168079 0.0091840075 178.0638
18991000 -0.0094588231 178.09003 -51.659962 61.131969 -54.267262 80.937584 -0.0035942046 178.15298
19490500 0.0038283768 178.22417 -54.167816 84.805252 -60.292473 49.131737 -0.01663051 177.94511
19990000 0.002935776 178.0907 -55.935352 49.667183 -63.519138 115.68063 -0.0055913511 178.16154
20489500 0.0028322465 178.04143 -69.362152 178.21703 -57.606022 75.766563 -0.0059284065 177.96384
20989000 -0.0035747769 178.0426 -57.136986 39.926403 -63.161488 111.12716 -0.010523001 177.94427
21488500 -0.0030434097 177.86433 -62.817692 98.359085 -61.84869 -22.034889 -0.0074119652 177.7937
21988000 0.0054169977 177.82445 -56.830898 18.401709 -61.001499 -41.628574 -0.013865673 177.76134
22487500 -0.01022412 177.86055 -51.710831 33.415226 -68.688271 -10.943819 -0.014657027 177.67668
22987000 -0.01071825 177.82112 -58.837578 104.72919 -57.53661 20.496361 -0.0058952766 177.7139
23486500 -0.016300434 177.75287 -55.986591 35.338951 -53.927299 41.196671 -0.0071949102 177.59103
23986000 -0.0086688465 177.66209 -59.662437 57.792881 -55.081436 75.315781 -0.0095582893 177.54834
24485500 -0.0035180966 177.61815 -58.816757 73.994743 -63.087116 76.517845 -0.013522209 177.56273
24985000 -0.0011650596 177.65085 -61.775723 55.830669 -56.012592 43.786381 -0.023690388 177.50711
25484500 0.00041713839 177.49564 -60.818981 33.573029 -56.083279 43.20359 -0.018673535 177.36813
25984000 0.0042547728 177.49701 -61.625481 76.030098 -55.969395 46.062862 -0.0056941537 177.40472
26483500 -0.0097862752 177.41667 -60.273544 52.098698 -59.57542 73.233894 -0.022314377 177.371
26983000 -0.0036619639 177.40448 -61.40604 39.586964 -67.507446 81.97966 -0.0076007014 177.28683
27482500 0.0090177516 177.30188 -57.13575 70.92923 -55.506062 29.455091 -0.010999879 177.22191
27982000 -0.0019278039 177.26033 -56.519428 12.404491 -58.182442 44.642826 -0.027259722 177.16389
28481500 -0.010151058 177.22285 -53.939602 34.134087 -59.363197 84.267174 -0.019506771 177.16592
28981000 -0.0075327358 177.19182 -57.180836 50.301373 -52.974911 56.652683 -0.032660175 177.10538
29480500 -0.0088966954 177.19363 -59.083431 46.175175 -56.541126 42.131294 -0.03148748 177.03543
29980000 -0.00271546 177.08324 -57.976292 57.386723 -61.146591 54.414074 -0.020165365 176.93462
30479500 -0.0039665196 176.99132 -58.952709 64.299988 -55.295643 50.459675 -0.022666221 176.8968
30979000 -0.015862778 177.02116 -59.321133 67.897606 -54.831284 55.856125 -0.020998122 176.95926
31478500 0.0016883095 176.95517 -53.453953 46.672985 -55.222088 42.222225 -0.024516048 176.85846
31978000 -0.0032418787 176.8369 -55.427395 43.303123 -56.475117 59.266029 -0.022803979 176.78143
32477500 -0.0060736411 176.84084 -54.685928 27.549747 -57.812107 38.195595 -0.029016832 176.74162
32977000 -0.012449929 176.81514 -55.005711 42.295883 -55.428349 35.882328 -0.028540691 176.68526
33476500 -0.0049054478 176.75377 -57.061108 37.96553 -55.262978 39.834629 -0.04406058 176.65355
33976000 -0.0090191076 176.71623 -57.853004 42.109768 -55.22356 50.656696 -0.029230068 176.62645
34475500 -0.0016118842 176.6413 -53.944679 54.252895 -56.731037 54.200012 -0.03100053 176.58817
34975000 -0.0051662414 176.61572 -57.094944 34.096764 -55.448349 39.481361 -0.033787206 176.52425
35474500 -0.015019679 176.56973 -54.051483 55.421581 -57.227718 60.934708 -0.034536034 176.46999
35974000 -0.0070870644 176.48346 -57.473919 54.153931 -55.434181 43.573254 -0.03918067 176.5058
36473500 -0.0047682221 176.39888 -55.595135 43.524658 -60.019661 57.701813 -0.032580536 176.39908
36973000 -0.01224268 176.38853 -57.169231 19.816477 -56.842178 47.886044 -0.039274026 176.33293
37472500 -0.0052235788 176.37984 -55.923428 31.908274 -56.010632 43.954105 -0.03132727 176.28264
37972000 -0.015559965 176.30862 -56.814655 35.96833 -56.632114 24.138382 -0.032072868 176.25656
38471500 -0.020140668 176.23619 -56.64246 45.151173 -58.335545 27.720999 -0.036168896 176.25224
38971000 -0.021359604 176.15843 -56.988628 44.408943 -54.292526 45.234898 -0.03054793 176.18451
39470500 -0.0066834316 176.18324 -56.716911 61.330269 -55.99258 46.434643 -0.034828272 176.17383
39970000 -0.0095884744 176.12334 -56.126915 55.951347 -52.846584 46.861973 -0.044082429 176.10851
40469500 -0.014059005 176.10057 -54.025826 28.97344 -55.569733 57.556782 -0.031263847 176.02904
40969000 -0.0078100683 176.09619 -56.35638 60.21962 -55.364689 27.50473 -0.043418162 175.97458
41468500 -0.012854247 175.96559 -54.125389 32.816231 -54.18639 35.865974 -0.045278341 175.89943
41968000 -0.01948797 175.8895 -54.105206 27.038151 -55.00922 46.473122 -0.041100837 175.88651
42467500 -0.017201012 175.79939 -58.476639 24.586569 -57.06424 37.222809 -0.044237968 175.89459
42967000 -0.019360425 175.84106 -56.19553 31.860025 -56.173592 22.854645 -0.044632487 175.77884
43466500 -0.018498341 175.84795 -54.645966 28.327198 -57.238033 12.886755 -0.034105279 175.85408
43966000 -0.01663072 175.6711 -54.476257 23.469246 -54.882977 45.990902 -0.043181401 175.74734
44465500 -0.012138425 175.66762 -55.555626 25.195435 -56.019585 38.180168 -0.043483242 175.6879
44965000 -0.0110694 175.64404 -53.594566 35.419857 -56.468719 26.613792 -0.036014032 175.67116
45464500 -0.031320557 175.62064 -59.109806 11.402649 -48.776283 81.625565 -0.011481185 175.58488
45964000 -0.01699595 175.54373 -54.56184 61.394276 -51.514042 60.847813 -0.035614651 175.52747
46463500 -0.011878723 175.6127 -49.401245 62.578701 -52.503479 10.763048 -0.046166878 175.54524
46963000 -0.023154926 175.40094 -56.268238 -5.0362039 -53.413658 -19.104727 -0.037258741 175.52966
47462500 -0.023372211 175.35132 -52.275631 60.674305 -53.199829 8.5649405 -0.032555442 175.44092
47962000 -0.022474984 175.27986 -53.397079 1.0746515 -53.236515 -26.522764 -0.046610378 175.33189
48461500 -0.019516129 175.22951 -60.889156 110.30532 -54.727581 39.237541 -0.037681155 175.29546
48961000 -0.045408692 175.06892 -59.8116 -9.5037336 -52.220093 36.596691 -0.050516389 175.4184
49460500 -0.032747202 175.45399 -56.878448 19.298443 -48.343601 42.366161 -0.03272159 175.2249
49960000 -0.027768362 175.26147 -49.799957 5.8101053 -51.848339 -16.020859 -0.073972717 175.0233
50459500 -0.026541321 174.94537 -50.277882 27.706375 -59.480339 1.0992872 -0.06161844 175.20436
50959000 -0.013733175 175.01915 -53.649548 -2.0760732 -50.674736 17.228189 -0.038136885 175.05678
51458500 -0.025447084 174.94446 -54.539394 -24.225809 -53.68626 10.354661 -0.075728662 175.23056
51958000 -0.014969366 175.0847 -57.875427 71.400169 -49.639309 50.884983 -0.045499895 175.0262
52457500 -0.016118864 174.90039 -54.976959 -1.5660589 -54.874512 27.843845 -0.047562871 175.06917
52957000 -0.050960481 174.9592 -51.174915 22.950808 -57.251373 41.017189 -0.057288636 174.96288
53456500 -0.030346276 174.93634 -53.704807 22.444496 -53.629307 29.064934 -0.062354557 174.86504
53956000 -0.039112918 174.59242 -63.846695 131.08517 -54.432869 -12.678596 -0.067040823 174.95694
54455500 -0.038747232 174.72971 -55.434803 54.284264 -64.778694 151.07277 -0.068474248 174.63702
54955000 -0.0086728763 174.72939 -51.031292 28.338949 -60.006271 42.512566 -0.062034473 174.85976
55454500 -0.026600175 174.59732 -55.461529 50.251888 -55.342255 3.653466 -0.07234402 174.57904
55954000 -0.02471341 174.57422 -52.563057 48.201973 -61.762573 52.673164 -0.053484697 174.58223
56453500 -0.0062134503 174.51186 -51.852768 64.187485 -56.077538 9.4627762 -0.047780965 174.73611
56953000 -0.01348367 174.24463 -60.618534 -35.54356 -58.142471 17.82036 -0.073766291 174.54129
57452500 -0.036720078 174.36465 -56.737843 27.714689 -54.123894 60.644012 -0.059142534 174.69411
57952000 -0.038605224 174.38411 -58.917503 -46.145641 -52.764347 26.972473 -0.048671667 174.49356
58451500 -0.034342222 174.36658 -53.605469 8.862565 -73.810829 58.705887 -0.05996985 174.55714
58951000 -0.047116663 174.21992 -52.597904 29.409275 -57.31123 -18.637249 -0.062017668 174.414
59450500 -0.033751518 174.13005 -52.056583 42.184673 -52.251492 42.404087 -0.058560185 174.51465
59950000 -0.043277547 174.25697 -50.004372 -25.365047 -55.393833 5.934763 -0.072809696 174.4319
60449500 -0.014676023 174.19936 -49.412727 -28.218979 -51.866146 13.118107 -0.045431174 174.18887
60949000 -0.032739375 174.04865 -46.165051 46.098663 -52.625954 0.064379252 -0.064975552 174.3107
61448500 -0.02489059 173.8705 -51.89954 39.67075 -60.967594 32.983425 -0.063965835 174.25172
61948000 -0.020534825 174.11909 -53.218307 47.229134 -50.020081 -15.353936 -0.084949963 174.13234
62447500 -0.015242553 174.00079 -51.856743 6.5115852 -57.737778 -7.681778 -0.0546485 174.08556
62947000 -0.040671684 173.67932 -50.678032 42.463078 -57.165676 -18.767347 -0.046128955 174.35748
63446500 -0.013332556 174.01524 -54.959721 7.9180717 -56.297539 1.7723962 -0.077166878 174.13097
63946000 -0.029809944 173.75423 -53.246548 31.829979 -51.602417 24.804457 -0.052544814 173.78825
64445500 0.00063224498 173.73157 -47.47047 22.635447 -49.88533 -9.9015245 -0.078035057 173.79599
64945000 -0.023381384 173.74861 -54.931225 -10.157763 -51.006489 8.890748 -0.058035113 173.93126
65444500 -0.019789059 173.54205 -50.245197 28.519859 -51.859875 22.62114 -0.090278007 173.96178
65944000 -0.049585279 173.55191 -48.963478 21.98959 -71.776924 -148.85941 -0.055811498 173.75343
66443500 -0.021924507 173.49496 -54.515041 12.450494 -58.218346 10.083592 -0.062851094 173.94492
66943000 -0.028090036 173.35213 -50.602299 54.240631 -56.437366 23.758593 -0.075967796 173.65802
67442500 -0.028786058 173.41484 -57.744839 31.785604 -54.424919 30.256744 -0.068872005 173.65085
67942000 -0.029568473 173.39215 -51.303211 5.0068393 -53.97979 43.885231 -0.05191629 173.614
68441500 -0.032714356 173.35942 -56.112446 23.800903 -53.492275 13.19308 -0.057262547 173.60417
68941000 -0.043462772 173.32906 -53.073769 19.025387 -56.659721 10.044889 -0.065834701 173.58882
69440500 0.00031830824 173.28514 -52.504627 25.809456 -54.60006 -16.655727 -0.080114022 173.56137
69940000 -0.02312931 173.12163 -50.022411 24.105335 -50.089352 29.427752 -0.050523769 173.41852
70439500 -0.012459345 173.12498 -59.86565 21.976507 -51.474518 19.494032 -0.074947983 173.25233
70939000 -0.02649761 173.16632 -62.634693 -64.052505 -59.304092 -42.731709 -0.068122543 173.26855
71438500 -0.037613735 172.98438 -52.190254 33.510021 -48.202862 11.510803 -0.07203944 173.18135
71938000 -0.036225833 172.90968 -54.214504 35.010475 -55.3256 18.296028 -0.068659328 173.3511
72437500 -0.037551742 172.97987 -54.409134 24.564642 -50.31031 14.733133 -0.041923821 173.19498
72937000 -0.053907439 172.87888 -52.027096 23.86138 -56.332443 -11.115127 -0.075295515 173.1783
73436500 -0.0361128 173.03006 -49.424717 22.070856 -51.001545 -23.117697 -0.051556639 173.20822
73936000 -0.036996886 172.84924 -57.634979 27.416216 -58.661236 9.0425806 -0.073063485 173.09442
74435500 -0.048277788 172.75227 -56.064663 38.301655 -55.417736 24.021616 -0.076932847 173.13763
74935000 -0.033986297 172.70973 -52.416805 5.8466959 -53.620075 20.630371 -0.10255747 172.96286
75434500 -0.030785168 172.7563 -50.591644 2.2142649 -52.214916 10.463738 -0.065371022 172.94269
75934000 -0.03670539 172.57066 -55.980682 23.72043 -52.396099 -0.068969868 -0.065021649 173.00005
76433500 -0.026297215 172.55125 -60.959385 61.728622 -56.141438 13.231647 -0.070954643 172.90308
76933000 -0.022221545 172.49994 -57.357418 21.484295 -53.219376 25.347437 -0.057812147 172.81982
77432500 -0.022923069 172.56061 -58.381786 52.390293 -54.190342 -30.852324 -0.058341429 172.73563
77932000 -0.030793736 172.30829 -53.460606 -8.8699045 -54.50938 35.427052 -0.044519313 172.84242
78431500 -0.032875076 172.42719 -52.464077 0.3139722 -55.905582 50.737755 -0.069008514 172.64139
78931000 -0.038686465 172.37868 -57.187412 -18.099958 -61.185619 42.958347 -0.057384573 172.73239
79430500 -0.024508461 172.37279 -51.471767 17.657839 -59.151257 -15.076329 -0.055641532 172.65764
79930000 -0.022648964 172.25063 -58.404171 20.350464 -56.70266 40.901188 -0.060632635 172.59816
80429500 -0.029854838 172.25648 -52.495735 -11.824811 -53.794968 31.300596 -0.06079419 172.59456
80929000 -0.044620834 172.1736 -53.99144 18.754408 -52.27578 22.293446 -0.075647637 172.48778
81428500 -0.040700257 172.18175 -52.725006 27.686699 -60.724674 5.3393064 -0.082552046 172.46463
81928000 -0.02459343 172.12494 -56.628674 8.0051708 -54.2705 -15.673244 -0.067035049 172.41537
82427500 -0.041185752 171.91245 -55.605816 7.5167913 -53.06004 14.935645 -0.066481695 172.3022
82927000 -0.048519116 172.1028 -53.717602 21.648474 -54.069981 22.032845 -0.066722922 172.34868
83426500 -0.020897359 172.0116 -56.423477 -18.394377 -55.271603 18.7892 -0.070836708 172.21188
83926000 -0.032986887 171.90913 -54.700233 28.706533 -57.727886 24.947895 -0.090987958 172.28262
84425500 -0.032081455 171.81451 -58.973549 27.408651 -58.426323 22.539118 -0.062451411 172.15541
84925000 -0.025479924 171.8927 -53.026218 13.729576 -51.682377 -1.4392747 -0.05350301 172.16501
85424500 -0.048146538 171.68884 -52.748871 27.829798 -58.115578 48.987858 -0.064490862 172.09647
85924000 -0.039536308 171.78674 -51.628326 -11.451786 -56.312023 2.3067427 -0.066784248 172.08536
86423500 -0.032751329 171.62703 -52.494034 4.9131503 -55.126831 20.893703 -0.081537113 172.02534
86923000 -0.040443782 171.56975 -54.695488 44.438503 -57.292965 -5.1231685 -0.063639596 171.95166
87422500 -0.030554751 171.50035 -61.142544 25.475657 -53.555996 6.0532002 -0.057806693 171.87421
87922000 -0.032257002 171.46603 -61.874332 20.674788 -51.58987 17.493357 -0.060012728 171.88474
88421500 -0.03247349 171.5002 -57.283272 19.01251 -52.941151 21.326544 -0.068643004 171.85649
88921000 -0.048520461 171.38075 -56.731274 15.799119 -55.274677 10.674335 -0.076765649 171.84489
89420500 -0.031861279 171.32465 -51.835716 2.4864814 -55.886009 10.414034 -0.064622067 171.69655
89920000 -0.045630541 171.30234 -55.72002 30.211926 -55.229568 11.477785 -0.057601389 171.67996
90419500 -0.044223562 171.30032 -58.309315 -3.0007212 -56.302727 -10.040057 -0.074950077 171.64023
90919000 -0.033177707 171.2775 -54.175392 4.2862277 -55.030708 10.317409 -0.072450608 171.55077
91418500 -0.032955121 171.13229 -55.145004 -5.0091515 -53.399895 -8.2262163 -0.087357379 171.60065
91918000 -0.046473149 171.09511 -54.542904 -7.1349363 -58.239536 -10.47871 -0.06331335 171.54369
92417500 -0.037175413 171.04134 -53.087051 2.1308587 -55.066685 -1.2096595 -0.066678591 171.55594
92917000 -0.020630138 171.01556 -53.159241 12.613956 -55.022026 14.906009 -0.068791248 171.49547
93416500 -0.034592114 171.01297 -59.877399 15.995671 -57.87009 25.180946 -0.083078459 171.43761
93916000 -0.040750396 170.95624 -53.642826 10.599693 -55.970905 20.714985 -0.081790388 171.37881
94415500 -0.037956379 170.93372 -55.898415 14.78638 -54.79081 6.7133336 -0.076560222 171.37433
94915000 -0.03646268 170.8797 -54.013962 13.912311 -56.99255 22.210024 -0.053857934 171.33759
95414500 -0.049050231 170.75011 -53.238373 -11.471257 -55.367443 28.922215 -0.070214018 171.15358
95914000 -0.034511883 170.77504 -54.212849 30.134972 -56.839203 17.891171 -0.088034451 171.17186
96413500 -0.036709748 170.7758 -56.014515 15.798158 -54.501137 -17.359537 -0.071769811 171.13893
96913000 -0.043385208 170.62445 -54.225025 14.057033 -59.572151 32.99506 -0.077378772 171.16924
97412500 -0.042710617 170.59642 -56.877579 18.171963 -55.517979 -6.5420208 -0.080233678 171.08293
97912000 -0.038286619 170.51956 -57.435261 29.116215 -57.33923 14.442051 -0.067621142 171.01425
98411500 -0.037969284 170.50316 -57.255306 19.920853 -56.223007 12.697428 -0.065813854 170.96521
98911000 -0.050124187 170.51073 -54.448498 -0.23341344 -55.150826 12.468385 -0.083563097 170.92538
99410500 -0.041056078 170.45096 -54.746788 -2.2303791 -62.954929 6.6805224 -0.06551294 170.91414
99910000 -0.037316658 170.43201 -59.628246 8.7972527 -60.007706 -26.654642 -0.074025691 170.83546
100409500 -0.046908651 170.36372 -55.857147 5.9312887 -59.035473 -1.1664551 -0.07610862 170.77449
100909000 -0.035180744 170.20354 -58.304935 11.730322 -58.496906 16.722536 -0.079388909 170.65556
101408500 -0.031614058 170.30464 -57.859787 29.265463 -57.138428 22.445858 -0.078754798 170.68513
101908000 -0.037517976 170.20313 -56.390896 17.745554 -56.208874 22.207792 -0.083147496 170.6673
102407500 -0.039497748 170.19524 -56.366623 26.199764 -55.372051 23.115051 -0.062738918 170.54105
102907000 -0.028458655 170.11513 -56.957081 3.6451585 -59.847424 22.240805 -0.069254428 170.54547
103406500 -0.03638687 170.03171 -55.047245 24.193653 -60.710663 72.153915 -0.060983766 170.51588
103906000 -0.035545323 169.9397 -54.979168 16.62126 -57.687782 3.1339395 -0.061595779 170.49721
104405500 -0.03140894 170.02286 -52.561714 15.143493 -57.848701 -2.0932136 -0.071437977 170.5226
104905000 -0.040993758 169.88383 -56.424011 5.4841671 -56.795364 40.485088 -0.075039044 170.37982
105404500 -0.043541957 169.77821 -54.742607 26.996267 -55.905392 18.952847 -0.077248581 170.35402
105904000 -0.059308942 169.78464 -56.61869 32.510311 -54.766228 10.61966 -0.075584605 170.18417
106403500 -0.038657896 169.74712 -54.778847 9.5650473 -57.27179 -2.3037312 -0.074972041 170.27432
106903000 -0.051007219 169.71895 -55.33485 -17.15468 -57.253452 33.13744 -0.059827257 170.24384
107402500 -0.051996469 169.62392 -56.808632 8.6247425 -57.095737 -13.222624 -0.072129585 170.15468
107902000 -0.034360584 169.54269 -57.235043 -5.3857565 -54.601418 11.746917 -0.067119695 170.07913
108401500 -0.04695531 169.53978 -59.856567 17.676134 -55.617058 7.2950697 -0.07007084 170.09129
108901000 -0.044586927 169.50803 -62.095108 -11.61023 -58.745213 5.6394377 -0.068578854 169.94429
109400500 -0.040301647 169.43962 -58.181782 22.561718 -57.168495 13.09071 -0.084108204 170.09352
109900000 -0.022038314 169.45938 -53.508995 13.231246 -55.590939 -1.0115455 -0.070909299 169.95386
110399500 -0.039063308 169.32771 -57.361874 2.4088762 -55.310669 5.9945974 -0.07102786 169.98096
110899000 -0.031051146 169.29289 -54.756546 10.233135 -54.526669 9.3320332 -0.085991904 169.92525
