!Agilent Technologies,E8362C,MY43020457,A.09.42.15
!Agilent E8362C: A.09.42.15
!Date: Friday, March 13, 2026 14:08:43
!Correction: S11(Full 2 Port(1,2)) 
!S21(Full 2 Port(1,2)) 
!S12(Full 2 Port(1,2)) 
!S22(Full 2 Port(1,2)) 
!S2P File: Measurements: S11, S21, S12, S22:
# Hz S  dB   R 50
10000000 -2.990144 -179.3772 -11.892136 3.3799114 -18.224749 19.379633 -56.787537 56.392834
10309375 -2.9735811 -179.76126 -11.756867 3.6006584 -17.647966 17.929729 -62.256374 -173.6528
10618750 -2.9126625 -178.84969 -11.735296 4.2345643 -17.310715 18.677485 -69.057297 111.66537
10928125 -2.9056482 -178.99409 -11.406265 3.1015615 -17.011276 18.312498 -59.481956 -139.21005
11237500 -2.8311677 -178.98741 -11.528793 4.1916509 -16.643114 17.586123 -66.908524 100.24001
11546875 -2.8723845 -179.41563 -11.210162 4.555099 -16.518988 17.789053 -67.3713 152.76935
11856250 -2.8977394 -179.70421 -11.237453 3.4629858 -16.435236 18.33201 -64.998962 70.190598
12165625 -2.8419011 -179.7726 -11.067553 3.7295775 -16.074049 17.716908 -63.630829 108.64324
12475000 -2.920944 -179.90184 -11.123466 3.4734259 -15.943572 16.946815 -62.890831 32.366386
12784375 -2.8320358 -179.59271 -11.002684 3.2643096 -15.909911 16.175352 -61.477291 -130.12946
13093750 -2.9188974 -179.8071 -11.025925 3.9724467 -15.61406 15.507057 -63.63467 98.355888
13403125 -2.8566864 -179.87305 -11.123538 2.6928995 -15.552814 14.947246 -66.066406 78.330811
13712500 -2.8265522 179.80777 -10.949831 2.5858498 -15.464996 14.08159 -65.84687 -110.99174
14021875 -2.828639 179.8298 -10.841003 2.7825303 -15.300156 14.534829 -65.677505 148.69772
14331250 -2.8750234 -179.9705 -10.825089 2.7868094 -15.228408 13.427159 -60.595238 -65.976372
14640625 -2.8361938 179.74838 -10.762166 2.5859139 -15.201596 13.092737 -61.032627 60.902836
14950000 -2.8359194 179.68677 -10.74679 2.2630291 -15.140105 11.685432 -81.948875 -135.60582
15259375 -2.8087745 179.64365 -10.775292 2.0856583 -15.027267 11.605495 -61.00861 61.008118
15568750 -2.8348699 179.49525 -10.68487 1.9767581 -14.952428 10.791762 -59.630802 92.741264
15878125 -2.8280604 179.48817 -10.733782 1.4751565 -14.81671 10.020577 -66.940155 -51.946632
16187500 -2.8039291 179.45633 -10.632745 1.7041485 -14.798769 9.6200867 -64.120605 31.245878
16496875 -2.8211718 179.62373 -10.630308 0.98505425 -14.796091 9.4027624 -74.923996 64.078476
16806250 -2.8263159 179.3335 -10.617088 0.98299271 -14.726284 8.2959394 -71.452011 154.31789
17115625 -2.8459597 179.01933 -10.565052 0.29849574 -14.65017 7.7041564 -59.843834 87.332108
17425000 -2.8209879 179.259 -10.588485 0.29174796 -14.618627 7.0677323 -66.700584 -42.545475
17734375 -2.8215377 179.28859 -10.558076 0.20820118 -14.586603 7.1695189 -69.878746 -101.10986
18043750 -2.7979696 179.16238 -10.633738 -0.048111711 -14.558494 6.3110895 -63.262177 105.20867
18353125 -2.8293965 178.88321 -10.556631 -0.62648165 -14.552588 5.395123 -89.949226 20.790829
18662500 -2.8119967 178.98581 -10.580834 -0.95712852 -14.535308 5.1145301 -75.930122 109.31091
18971875 -2.8420279 178.91327 -10.556732 -0.66104281 -14.47678 4.6614795 -65.049286 -9.7941427
19281250 -2.8042786 179.00328 -10.494277 -0.96020049 -14.458662 4.2762976 -68.557732 87.32502
19590625 -2.8256056 178.86807 -10.511124 -1.1768625 -14.404308 3.7088244 -70.666885 95.090172
19900000 -2.8359337 178.90807 -10.572578 -1.6785361 -14.475158 3.3143957 -60.274033 27.739204
20209375 -2.8333106 178.89786 -10.571114 -1.7068133 -14.451347 2.7535646 -69.915825 79.533234
20518750 -2.8171866 178.51508 -10.521255 -1.8095134 -14.434366 2.0731552 -71.679749 16.599264
20828125 -2.8215826 178.70828 -10.567117 -2.0221658 -14.476877 2.0962288 -76.200378 -34.135914
21137500 -2.8260143 178.6498 -10.549356 -2.0905232 -14.421978 1.4635478 -64.225533 48.842598
21446875 -2.8132229 178.6571 -10.540475 -2.2961726 -14.478002 1.1911098 -67.310379 51.814262
21756250 -2.8340642 178.51472 -10.533737 -2.4833641 -14.464379 0.44926077 -69.578949 17.191648
22065625 -2.8227818 178.45007 -10.57068 -2.6692867 -14.494205 0.49304512 -64.047966 100.35347
22375000 -2.8361137 178.44171 -10.593225 -2.6429543 -14.47816 -0.063472725 -70.105835 74.325012
22684375 -2.8373415 178.43063 -10.606794 -2.7847869 -14.505204 -0.23388217 -69.69416 24.335255
22993750 -2.8250299 178.30032 -10.600284 -3.0236244 -14.568657 -0.78900504 -72.36068 80.540924
23303125 -2.8250802 178.35857 -10.577331 -3.2386556 -14.555784 -1.344836 -66.804161 53.045555
23612500 -2.8359935 178.36986 -10.629413 -3.3820252 -14.526812 -1.1570653 -64.511536 89.085266
23921875 -2.8277514 178.07961 -10.631272 -3.6675739 -14.594322 -1.6316544 -73.632042 21.282785
24231250 -2.8495283 178.16777 -10.635082 -3.6550822 -14.579665 -2.1452959 -82.535698 23.748995
24540625 -2.830585 178.18419 -10.642757 -3.7316313 -14.629457 -2.3241799 -68.57193 -175.59781
24850000 -2.8212104 178.14798 -10.648032 -4.1709089 -14.65856 -2.5382493 -74.965958 79.392502
25159375 -2.8298786 178.04784 -10.651915 -4.1990972 -14.674474 -2.9494128 -72.646729 120.82726
25468750 -2.8218582 177.99527 -10.675718 -4.226933 -14.662404 -3.1191149 -71.484764 52.733608
25778125 -2.8256979 178.1089 -10.692815 -4.3993807 -14.709646 -3.600667 -68.694168 46.867561
26087500 -2.8466146 177.96834 -10.686151 -4.4584856 -14.754482 -3.4250998 -67.573372 82.609512
26396875 -2.8243871 177.83708 -10.715979 -4.4798393 -14.761413 -3.9306018 -89.211678 -53.823803
26706250 -2.8190339 177.81976 -10.713297 -4.8678737 -14.782271 -4.2344031 -61.337658 91.632942
27015625 -2.8284967 177.89423 -10.727891 -4.7581868 -14.811267 -4.4147024 -69.744675 125.81093
27325000 -2.8218851 177.81451 -10.753284 -4.8454413 -14.839798 -4.5165582 -66.371613 65.895805
27634375 -2.8391755 177.81259 -10.769309 -5.0304699 -14.850628 -4.6539202 -65.902008 43.46133
27943750 -2.8322678 177.72125 -10.762567 -4.9340529 -14.895394 -4.9147062 -67.403 80.919289
28253125 -2.8362398 177.80888 -10.799774 -5.159164 -14.910898 -5.1926522 -72.942039 119.28403
28562500 -2.8422375 177.71635 -10.774632 -5.2049561 -14.929254 -5.1925106 -67.560272 42.328178
28871875 -2.8289077 177.6441 -10.839379 -5.2837629 -14.993218 -5.4818778 -77.942497 -123.60025
29181250 -2.8431885 177.7787 -10.832366 -5.3435898 -14.977416 -5.5981593 -63.387833 124.51782
29490625 -2.8345404 177.59796 -10.84927 -5.607265 -15.050603 -5.5951829 -67.3582 144.7849
29800000 -2.8300672 177.61023 -10.865167 -5.4743209 -15.064197 -5.8507557 -70.424782 -94.595436
30109375 -2.8454597 177.66129 -10.853899 -5.497303 -15.088918 -5.9295907 -67.433258 82.294823
30418750 -2.8309906 177.50571 -10.900199 -5.6144538 -15.119639 -6.005393 -65.140755 70.377403
30728125 -2.8480322 177.48872 -10.90445 -5.6368914 -15.162118 -6.2942476 -68.69973 106.49811
31037500 -2.8439922 177.40074 -10.919391 -5.6363964 -15.164514 -6.3625655 -70.415199 92.632072
31346875 -2.8446841 177.42542 -10.917895 -5.6727571 -15.188097 -6.1982222 -68.254852 105.35805
31656250 -2.8429768 177.47047 -10.944228 -5.725738 -15.223322 -6.4297347 -63.474926 106.17925
31965625 -2.8509173 177.41461 -10.980208 -5.6201186 -15.249799 -6.5626531 -71.271133 122.38644
32275000 -2.8500934 177.31274 -10.965551 -5.8049107 -15.315874 -6.6302719 -64.215096 63.007519
32584375 -2.8479815 177.35838 -10.988434 -5.8918781 -15.3321 -6.616159 -75.456757 111.18222
32893750 -2.8469689 177.31001 -10.983511 -5.9474192 -15.350116 -6.7144504 -61.066788 97.744835
33203125 -2.852459 177.22537 -10.984606 -5.6528187 -15.360206 -6.7665253 -91.555832 35.507286
33512500 -2.8527169 177.24576 -11.017703 -5.7234182 -15.38409 -6.8908844 -64.980957 48.75293
33821875 -2.8374894 177.18217 -11.011287 -5.8431711 -15.425666 -6.9717355 -61.552761 55.575588
34131250 -2.8499188 177.15665 -11.03006 -5.9313273 -15.437993 -6.8710003 -67.295998 77.794144
34440625 -2.8507338 177.14096 -11.05877 -6.0197992 -15.471291 -6.9063783 -67.067558 114.50157
34750000 -2.8624234 177.15025 -11.031579 -5.9252896 -15.486771 -6.9274449 -70.170486 71.934212
35059375 -2.8554873 177.07137 -11.05718 -5.9926944 -15.494847 -6.8678527 -63.623299 57.846451
35368750 -2.8653209 177.13396 -11.066584 -5.8812332 -15.548017 -6.9129801 -63.379158 72.112701
35678125 -2.8547306 177.05963 -11.080564 -5.8972392 -15.558226 -7.0776024 -64.553123 75.852745
35987500 -2.840754 177.03128 -11.091773 -6.0234952 -15.588893 -7.0306563 -62.20829 43.445038
36296875 -2.8545513 176.77979 -11.094278 -6.1271276 -15.602371 -6.8468533 -66.799789 127.18394
36606250 -2.8598819 176.90186 -11.103763 -6.0774932 -15.647271 -6.9665599 -68.233521 83.811119
36915625 -2.8537576 176.96094 -11.109052 -6.0625372 -15.653454 -6.8913984 -68.499542 92.414124
37225000 -2.8546443 176.90141 -11.141628 -5.9893446 -15.672599 -6.9493389 -65.257874 114.15996
37534375 -2.8576787 176.88631 -11.121727 -6.0561886 -15.689646 -6.9147797 -65.291191 109.20947
37843750 -2.8641593 176.89005 -11.14517 -6.105443 -15.717213 -6.8971305 -67.826149 63.574898
38153125 -2.8640769 176.79788 -11.158826 -6.0516028 -15.71545 -6.8931961 -70.424309 93.456543
38462500 -2.8580196 176.80234 -11.146904 -6.0504904 -15.754619 -6.8120327 -68.493576 88.683319
38771875 -2.862787 176.80168 -11.184286 -6.0405159 -15.785236 -6.8570266 -68.787498 65.944084
39081250 -2.8504207 176.68437 -11.166209 -5.7476525 -15.787592 -6.8891621 -65.715324 91.472054
39390625 -2.8638017 176.71049 -11.179236 -6.1681938 -15.800449 -6.754087 -64.334641 65.653191
39700000 -2.8703191 176.67227 -11.184526 -6.0769029 -15.814494 -6.5554438 -63.81572 89.868553
40009375 -2.8609741 176.64142 -11.199113 -5.9506121 -15.846973 -6.7250543 -65.178146 107.52535
40318750 -2.8750913 176.57864 -11.210546 -5.9718385 -15.876099 -6.5630322 -64.252907 65.949501
40628125 -2.8655019 176.66011 -11.187679 -6.0157084 -15.878399 -6.5107284 -66.738411 77.631523
40937500 -2.872231 176.58942 -11.207999 -6.0268435 -15.891894 -6.3438597 -66.472557 76.177689
41246875 -2.8629842 176.50313 -11.217714 -6.016789 -15.884609 -6.4227657 -64.634613 65.219254
41556250 -2.8643868 176.62515 -11.229987 -5.9727969 -15.914907 -6.3025508 -62.361073 80.422173
41865625 -2.8660724 176.45921 -11.243082 -6.0766783 -15.957885 -6.4892035 -61.873917 85.771721
42175000 -2.8681002 176.47372 -11.230053 -6.0193367 -15.940578 -6.2295585 -62.697746 89.057816
42484375 -2.8655515 176.48506 -11.254856 -5.9216323 -15.956748 -6.2630615 -64.077553 81.60601
42793750 -2.8674834 176.44008 -11.242482 -5.9612522 -15.968241 -6.0632806 -64.312378 83.016159
43103125 -2.8702691 176.44885 -11.256352 -5.9258389 -15.951907 -6.0524554 -65.249901 92.078468
43412500 -2.8609223 176.35144 -11.26787 -5.8011022 -15.974277 -5.9389448 -62.442623 95.167152
43721875 -2.8583779 176.37405 -11.260818 -5.9417214 -15.985442 -5.9226284 -65.413795 93.693985
44031250 -2.874783 176.35931 -11.278246 -5.9411178 -15.988127 -5.7978635 -63.269794 85.576393
44340625 -2.8740618 176.35005 -11.27059 -5.8086648 -16.012272 -5.7908869 -67.502251 74.54039
44650000 -2.8610365 176.28925 -11.269796 -5.8059387 -16.001272 -5.6786699 -65.589539 96.292694
44959375 -2.8568344 176.30571 -11.294913 -5.8673415 -16.019762 -5.65417 -63.061607 81.925179
45268750 -2.8644631 176.24193 -11.301076 -6.0387568 -16.072083 -5.6456046 -56.633221 75.47538
45578125 -2.8960285 176.29149 -11.308293 -5.8633227 -16.011148 -5.4337111 -70.258949 75.967072
45887500 -2.8725741 176.33656 -11.310654 -5.5905075 -16.034775 -5.1943607 -59.567017 94.042534
46196875 -2.875773 176.41821 -11.239215 -5.4920611 -16.095125 -5.159596 -65.281296 106.06276
46506250 -2.8893905 176.26012 -11.29985 -6.1386833 -16.039692 -5.4396658 -61.575508 97.235275
46815625 -2.8941109 176.0432 -11.264852 -5.5683246 -16.054592 -5.4517026 -67.298576 114.12357
47125000 -2.888643 176.18774 -11.26021 -5.780582 -16.106485 -5.1424866 -63.790325 93.641663
47434375 -2.8569303 176.14893 -11.275738 -5.717422 -16.077717 -5.0909476 -57.593433 102.14308
47743750 -2.9267626 176.02144 -11.34406 -5.6253304 -16.070044 -4.7865157 -60.230202 96.696625
48053125 -2.8610451 176.0743 -11.340401 -5.1108227 -16.073935 -5.3891439 -62.964378 89.291672
48362500 -2.885365 176.08954 -11.295838 -5.6342101 -15.981254 -5.0839944 -58.340248 143.61102
48671875 -2.8252671 176.09036 -11.19612 -5.9664516 -16.018976 -4.8669949 -58.021488 83.874458
48981250 -2.8661976 176.07677 -11.295048 -5.4357901 -16.139715 -4.8625259 -63.638885 142.59496
49290625 -2.8776932 176.15465 -11.303498 -5.3760457 -16.105059 -4.3751245 -62.368973 80.185417
49600000 -2.8707922 175.9837 -11.275749 -5.3129063 -16.054323 -4.7249761 -66.063316 69.745438
49909375 -2.895679 176.17365 -11.295199 -5.7996368 -16.067245 -4.6165876 -69.343849 124.54399
50218750 -2.8503563 175.92964 -11.320578 -5.5458503 -16.100256 -4.5619378 -59.835693 104.81591
50528125 -2.8690841 176.11504 -11.295584 -5.5893469 -16.119904 -4.3818197 -60.749924 91.136444
50837500 -2.8633862 175.94611 -11.306112 -5.6994247 -16.101713 -3.9817276 -62.391922 97.993553
51146875 -2.872782 175.87425 -11.302644 -5.1784034 -16.054569 -4.2348046 -58.77055 102.63957
51456250 -2.8801992 175.75529 -11.335119 -5.9370399 -16.041204 -4.414609 -60.569126 104.39623
51765625 -2.8616092 175.58739 -11.255189 -5.6592917 -16.004095 -4.2183681 -65.118896 130.67406
52075000 -2.8627121 175.82181 -11.281609 -5.7912912 -16.010923 -4.1008449 -62.167324 103.86324
52384375 -2.8689506 175.67841 -11.279091 -5.7426648 -16.07929 -4.2173667 -58.089378 109.17592
52693750 -2.8897936 175.76872 -11.323734 -5.4503393 -15.963233 -4.3756905 -61.422081 107.37058
53003125 -2.8543334 175.7997 -11.202811 -5.7780204 -16.005352 -4.0215917 -64.559258 69.244514
53312500 -2.858815 175.77956 -11.290518 -5.4855633 -16.019524 -4.4245505 -63.974972 130.80457
53621875 -2.8888786 175.51672 -11.258477 -5.2294312 -16.076019 -3.6980617 -68.102013 92.977058
53931250 -2.8655899 175.79462 -11.312883 -6.0001607 -15.982141 -4.1832056 -66.41111 69.676605
54240625 -2.8785813 175.56372 -11.224645 -5.3970423 -15.99441 -4.0428448 -59.737118 100.81496
54550000 -2.8715563 175.65967 -11.252325 -5.4054847 -16.022835 -3.8960218 -59.338306 101.77832
54859375 -2.8608167 175.60359 -11.2828 -5.4225063 -16.023537 -3.7598369 -59.619534 96.289177
55168750 -2.8787761 175.53345 -11.260476 -5.2746782 -15.963187 -3.7632568 -60.400124 102.21853
55478125 -2.8564813 175.49989 -11.270885 -5.9183035 -15.925359 -3.8206654 -58.509472 104.84062
55787500 -2.858402 175.59946 -11.252352 -5.8090272 -15.973052 -3.7123005 -59.863243 77.295113
56096875 -2.835449 175.33835 -11.253852 -5.8712063 -15.933074 -3.5375764 -64.186394 97.518372
56406250 -2.8295915 175.4362 -11.268955 -5.6266389 -15.983541 -3.7966652 -58.547985 66.438515
56715625 -2.8726578 175.52739 -11.231732 -5.4370055 -15.923925 -3.5474594 -65.676071 94.381294
57025000 -2.8400781 175.34702 -11.244658 -5.3226852 -15.861502 -3.7630916 -57.510803 104.31857
57334375 -2.8596613 175.31769 -11.228625 -5.9727764 -15.976162 -3.7269521 -63.684517 96.00444
57643750 -2.8465259 175.11931 -11.215902 -5.6716909 -15.883299 -3.6317315 -59.699173 71.898941
57953125 -2.8821051 175.30734 -11.246341 -5.6469402 -15.897372 -3.4946499 -58.385628 80.104607
58262500 -2.8587389 175.30737 -11.249159 -5.6006098 -15.921155 -4.0706534 -59.197235 82.812897
58571875 -2.8423746 175.10052 -11.22704 -5.845439 -15.868303 -3.3226886 -61.307312 98.818909
58881250 -2.8327653 175.31114 -11.180471 -5.3156857 -15.868849 -3.358489 -60.014725 71.230911
59190625 -2.8488526 175.2076 -11.163324 -5.8616767 -15.885815 -3.5632734 -60.778175 95.723862
59500000 -2.8431127 175.13446 -11.223339 -5.7827291 -15.893822 -3.5860116 -58.667133 77.424507
59809375 -2.8734372 175.06224 -11.245685 -5.8128901 -15.815671 -3.3850935 -60.806648 77.300774
60118750 -2.832011 175.12663 -11.216681 -6.0538502 -15.859558 -3.4015467 -57.650669 87.646614
60428125 -2.8927019 175.10144 -11.187091 -5.6760154 -15.824671 -3.4841573 -60.741009 77.576164
60737500 -2.8687313 175.08266 -11.226227 -5.4303679 -15.806319 -4.1973596 -57.750771 91.762161
61046875 -2.8819132 174.85947 -11.244711 -6.0578609 -15.817179 -3.9312329 -62.216919 80.580467
61356250 -2.8817172 174.9588 -11.235555 -5.9697919 -15.763649 -3.4682765 -57.739254 97.346176
61665625 -2.8603461 174.97472 -11.128617 -5.7138724 -15.787823 -3.708622 -59.803394 67.817154
61975000 -2.8610401 174.88403 -11.181323 -5.901464 -15.755233 -3.757808 -58.918232 91.349281
62284375 -2.8731887 174.89023 -11.155553 -6.1313424 -15.79518 -3.7871006 -60.398449 68.400749
62593750 -2.8172936 174.89954 -11.18765 -5.9498372 -15.776578 -3.6187496 -61.960323 62.462509
62903125 -2.836303 174.73166 -11.176673 -5.8609324 -15.774487 -3.8639781 -58.769707 85.365715
63212500 -2.8341749 174.78271 -11.171755 -5.8907537 -15.762218 -3.5923653 -60.880508 75.905251
63521875 -2.8431709 174.61575 -11.184589 -5.9460974 -15.776682 -3.8071816 -59.527668 85.722488
63831250 -2.8418913 174.8289 -11.120278 -5.6789026 -15.757215 -3.9271207 -59.661892 81.819046
64140625 -2.8514462 174.68942 -11.141079 -6.1603317 -15.698181 -3.9695046 -58.451687 89.282951
64450000 -2.8353724 174.63438 -11.129579 -6.0757422 -15.714256 -4.2065921 -58.213631 96.698303
64759375 -2.8403649 174.69946 -11.157843 -6.1851482 -15.674982 -4.1540384 -61.891975 76.91333
65068750 -2.8436353 174.59232 -11.172923 -6.1587071 -15.707983 -4.0991817 -57.575855 71.297897
65378125 -2.8285468 174.53496 -11.080243 -6.4147029 -15.688923 -3.9828157 -60.393364 109.87595
65687500 -2.8671508 174.63356 -11.121892 -6.1202416 -15.699825 -4.1199365 -60.271393 82.268021
65996875 -2.8330398 174.5209 -11.170527 -5.9423814 -15.693926 -3.9147179 -63.346912 63.152168
66306250 -2.8490703 174.38571 -11.072955 -5.8514466 -15.72777 -4.1399622 -60.572037 91.866997
66615625 -2.8547928 174.3759 -11.107753 -6.5044112 -15.606377 -4.2522798 -62.904816 94.027168
66925000 -2.8219352 174.39928 -11.132371 -5.7687211 -15.658789 -3.9808092 -59.402054 84.038902
67234375 -2.8779526 174.39455 -11.134943 -6.3969693 -15.645646 -4.4441137 -59.171719 62.247475
67543750 -2.8601849 174.3945 -11.142574 -6.3911185 -15.686684 -4.7805848 -60.441002 73.409248
67853125 -2.8307805 174.39209 -11.157967 -6.525856 -15.696205 -4.6470313 -59.76347 94.485542
68162500 -2.830555 174.40265 -11.126128 -6.8154783 -15.652451 -4.652204 -57.998249 85.867813
68471875 -2.8550498 174.16379 -11.101145 -6.4311805 -15.616693 -4.6455803 -61.037586 92.779465
68781250 -2.8480773 174.33852 -11.111881 -6.6242433 -15.596344 -4.3469329 -57.231716 83.900368
69090625 -2.8491488 174.25734 -11.143312 -6.6674662 -15.628588 -4.7836971 -59.599438 86.603127
69400000 -2.8326335 174.25896 -11.065888 -6.6632795 -15.573079 -4.9220915 -60.270805 95.089142
69709375 -2.8291914 174.06888 -11.097247 -6.4273739 -15.585555 -4.4619756 -59.016918 81.225166
70018750 -2.832303 174.02092 -11.130309 -6.8635468 -15.609925 -4.7000518 -61.236652 91.192894
70328125 -2.8264329 174.07323 -11.087757 -6.6912994 -15.589239 -5.0413084 -58.379078 94.07386
70637500 -2.8578823 174.06567 -11.092703 -6.7186871 -15.576717 -4.8185525 -58.295746 97.555511
70946875 -2.8295255 173.97046 -11.093136 -6.7193623 -15.580404 -4.8341136 -60.216904 78.64344
71256250 -2.8379538 174.04507 -11.089564 -7.0645885 -15.595683 -5.4482341 -63.226738 85.806976
71565625 -2.8326478 174.04704 -11.091751 -7.0095797 -15.598891 -5.0078254 -61.267956 93.756363
71875000 -2.8406351 174.00348 -11.078918 -6.821291 -15.578875 -5.4714818 -58.309185 93.207863
72184375 -2.8523185 173.9594 -11.102053 -7.1296411 -15.575259 -5.5431466 -57.132374 94.571152
72493750 -2.8338048 173.87589 -11.077578 -6.9255419 -15.575766 -5.2699027 -58.729832 88.222969
72803125 -2.8419566 173.92416 -11.009236 -6.9782948 -15.603128 -5.7459264 -57.501709 74.471207
73112500 -2.8433278 173.94249 -11.065558 -6.93222 -15.531777 -5.6692991 -63.21233 86.234467
73421875 -2.8368504 173.68097 -11.052903 -7.1350441 -15.559307 -5.6841278 -60.325607 86.838699
73731250 -2.8398123 173.75577 -11.05914 -7.0760131 -15.57513 -5.5877113 -61.173977 96.541122
74040625 -2.832994 173.78279 -11.085176 -7.3921447 -15.570057 -6.0660729 -57.476452 80.640221
74350000 -2.8463793 173.67831 -11.05969 -6.9878106 -15.590133 -5.9278913 -58.639202 102.14515
