!CSV A.01.01
!Agilent Technologies,E8362C,MY43020457,A.09.42.15
!Agilent E8362C: A.09.42.15
!Date: Friday, March 13, 2026 14:00:18
!Source: Standard

BEGIN CH1_DATA
Freq(Hz),S11(DB),S11(DEG),S12(DB),S12(DEG),S21(DB),S21(DEG),S22(DB),S22(DEG)
10000000,-34.498108,-64.345284,-0.11045393,-2.1641824,-0.062013809,-1.2767991,-89.027489,131.51086
10309375,-38.8643,-72.050156,-0.096027859,-2.0189307,0.0064644022,-0.95924109,-100.30135,-98.691978
10618750,-33.140488,-83.246391,-0.2407757,-1.8047618,-0.070382051,-1.0321016,-99.001328,151.87198
10928125,-36.461708,-69.653915,-0.16962288,-2.0315824,-0.0083668111,-1.435853,-88.936501,-91.391205
11237500,-33.717384,-84.61731,-0.14152497,-2.2780368,-0.003046056,-1.139796,-94.315048,169.28917
11546875,-34.197979,-89.565826,-0.14734405,-2.3456559,-0.020857945,-1.1956621,-93.865555,-134.32553
11856250,-38.953495,-72.049538,-0.18880825,-2.5099869,-0.01738042,-1.4229612,-92.602058,139.75058
12165625,-35.257942,-115.11906,-0.18712753,-1.9705245,0.025324726,-1.5139056,-95.538948,-177.50119
12475000,-34.212227,-98.467201,-0.077571012,-1.9101648,-0.063581437,-1.4893937,-95.519447,121.15971
12784375,-33.738651,-87.11956,-0.14587159,-2.004441,-0.02006563,-1.6309508,-91.764458,-51.855953
13093750,-35.936615,-97.148575,-0.13266185,-2.0526469,-0.0060466267,-1.6997154,-92.293823,176.4471
13403125,-32.683678,-100.79349,-0.14543746,-2.146374,-0.020705165,-1.6358865,-97.814331,130.32269
13712500,-33.283234,-95.609177,-0.10694995,-2.4760132,0.0020572357,-1.7319312,-95.563263,-25.000004
14021875,-34.19894,-93.712471,-0.16647045,-2.1474571,-0.01046368,-1.7916521,-94.359863,-143.95264
14331250,-35.733307,-97.165901,-0.18742432,-1.9700491,-0.013930551,-1.7791624,-88.697464,-2.0317509
14640625,-34.202919,-97.687798,-0.15990067,-2.4927127,0.021028791,-1.8994995,-89.147903,139.89326
14950000,-33.668797,-95.078156,-0.13854095,-2.4407275,-0.00025163556,-1.9057989,-110.49474,-53.5079
15259375,-34.715889,-102.40444,-0.14514454,-2.3552275,-0.014949536,-1.7258033,-88.777046,133.06523
15568750,-33.688217,-106.05206,-0.15027298,-2.3282204,0.056161601,-1.8664051,-90.181252,154.42177
15878125,-33.524853,-94.737389,-0.10767676,-2.5944898,0.032855198,-2.2346907,-95.29332,34.900589
16187500,-34.128155,-106.4398,-0.11517064,-2.5462098,-0.016210847,-1.8518709,-92.693092,104.66173
16496875,-33.939369,-103.19068,-0.12761281,-2.3562965,-0.034475923,-2.0648065,-103.46484,144.51691
16806250,-34.570198,-111.28472,-0.13077916,-2.4533327,-0.039881129,-2.0622268,-99.36631,-135.07957
17115625,-34.318962,-96.267418,-0.067591242,-2.6462355,-0.0082590505,-2.0342159,-88.804161,167.29463
17425000,-33.063797,-98.561211,-0.12594776,-2.6772776,-0.0049429904,-2.1847181,-93.894707,29.43387
17734375,-32.766891,-96.311073,-0.13680698,-2.5495527,-0.016684646,-2.1529014,-97.778175,-36.819233
18043750,-32.809479,-106.81017,-0.097374007,-2.8156743,-0.01909768,-2.2312846,-90.137184,-179.07961
18353125,-33.962555,-93.96933,-0.056422472,-2.8647945,-0.0079893423,-2.1278903,-116.7608,102.62684
18662500,-34.979324,-100.41962,-0.077094369,-2.8128576,-0.0020020385,-2.0970452,-102.65899,-171.77338
18971875,-34.005444,-103.33679,-0.083170913,-2.864424,0.0083275102,-2.16114,-92.675888,63.652611
19281250,-33.394623,-105.15018,-0.1112954,-2.9234159,0.0070043686,-2.2776155,-95.507042,163.07062
19590625,-33.211403,-98.857742,-0.062985472,-2.977972,0.0096089244,-2.3276808,-97.373955,175.28906
19900000,-32.568451,-99.992607,-0.098555744,-2.9014018,0.0094629815,-2.452991,-88.008461,100.51847
20209375,-34.078247,-103.56407,-0.072701596,-2.8673387,-0.0035715797,-2.4078457,-97.856689,156.79964
20518750,-33.335503,-96.981468,-0.077621058,-3.1598847,-0.011223239,-2.4106171,-98.314896,95.167175
20828125,-32.988422,-98.106361,-0.081298321,-3.1862018,0.0084010083,-2.5823495,-102.53853,44.758976
21137500,-32.700367,-99.078209,-0.076358289,-3.3228121,-0.0057579237,-2.442409,-90.336731,128.3336
21446875,-32.424305,-99.687569,-0.093025543,-3.1778152,0.0073144254,-2.6588778,-93.545227,123.82877
21756250,-33.034885,-96.719048,-0.031714819,-3.3342202,0.014902205,-2.5350375,-96.016014,100.31222
22065625,-33.115047,-100.36423,-0.061681539,-3.2472568,-0.0036789952,-2.6825678,-90.711426,177.39189
22375000,-32.935146,-103.62778,-0.046826366,-3.4040482,0.0057543339,-2.712671,-96.03643,157.77223
22684375,-32.018578,-101.13979,-0.030477047,-3.4003997,-0.013350944,-2.6405778,-95.529839,107.91177
22993750,-32.566071,-95.589447,-0.063849911,-3.7379761,0.011221041,-2.7198458,-97.755028,160.48036
23303125,-31.510468,-101.33162,-0.035665922,-3.6611094,0.0095423898,-2.7938483,-92.176582,133.1442
23612500,-31.927166,-98.52887,-0.046812888,-3.5661461,-0.0047353618,-2.7986803,-90.233696,163.68452
23921875,-32.480949,-100.31538,-0.053412911,-3.6804714,0.0018821928,-2.8403127,-99.262978,105.00341
24231250,-31.60288,-104.64999,-0.026194694,-3.8073182,-0.010617511,-2.9544964,-107.70971,109.11076
24540625,-31.625523,-96.831696,-0.033899531,-3.8945022,0.01583047,-2.9865959,-93.940704,-89.561714
24850000,-32.054184,-97.877159,-0.015091402,-3.835418,0.0083955126,-3.0780201,-100.1797,161.02824
25159375,-31.370195,-98.3368,-0.050243936,-4.0474257,0.012288759,-3.1524508,-97.425423,-160.0352
25468750,-31.073545,-95.213905,-0.030107329,-3.9378068,-0.0026623032,-3.131635,-96.074966,135.63756
25778125,-31.865192,-99.143562,-0.04102641,-4.0802832,0.017137585,-3.200455,-93.138023,126.17261
26087500,-30.612244,-97.232124,-0.016081568,-4.1735296,0.0065153539,-3.1614485,-92.243317,165.6312
26396875,-31.270388,-101.96331,-0.016448826,-4.13977,0.0098638516,-3.1488693,-113.59704,29.252701
26706250,-31.205198,-99.051323,-0.03228154,-4.3917799,0.024288073,-3.3633831,-85.400116,173.53336
27015625,-31.188969,-99.485245,-0.023227343,-4.2550869,0.0064120973,-3.3174779,-94.146004,-150.97525
27325000,-30.99498,-98.17173,-0.0013719171,-4.489666,0.011608361,-3.3521528,-90.432373,150.64041
27634375,-31.002649,-97.429123,-0.021098891,-4.4287453,0.006925012,-3.3063629,-89.988808,125.07577
27943750,-30.740982,-99.861809,-0.0026387656,-4.5546184,-0.001258873,-3.4143732,-91.269051,165.38315
28253125,-30.644669,-95.867599,0.0083950926,-4.6526494,0.004172551,-3.4270844,-96.621239,-153.59413
28562500,-30.428455,-99.931511,-0.0039035061,-4.6067142,0.019635111,-3.5094397,-91.303726,126.11737
28871875,-30.379679,-98.448326,-0.0076102675,-4.8400812,0.0028254213,-3.5327437,-101.54011,-40.413513
29181250,-30.521873,-97.234985,-0.0018275846,-4.7400947,0.016075892,-3.6266537,-86.819565,-150.32086
29490625,-30.427618,-99.734093,-0.010857238,-4.7503095,0.0080787959,-3.6410112,-90.641357,-133.09579
29800000,-29.839834,-97.445496,0.0026980704,-5.0151777,-6.0762708e-005,-3.6979225,-93.587128,-10.21583
30109375,-30.339361,-99.143105,0.0044153822,-4.9677372,0.0045730397,-3.7910128,-90.684288,164.61258
30418750,-30.250813,-98.046875,0.0073647285,-5.0805063,0.012129785,-3.8099108,-88.188278,154.88258
30728125,-30.202055,-99.833221,0.0018012485,-5.2155323,0.0013422953,-3.7603257,-91.455147,-169.43187
31037500,-30.304508,-97.803505,-0.0040014246,-5.2096152,0.0071992478,-3.8731117,-93.280983,176.61914
31346875,-29.892948,-96.364578,0.001475423,-5.2916851,0.022012314,-3.8948801,-90.950523,-170.71785
31656250,-29.958815,-99.754036,0.00049910072,-5.4814649,0.0076426147,-3.98982,-85.820152,-170.26408
31965625,-29.581701,-99.630264,0.013827207,-5.4847589,-0.0036516611,-3.8755662,-93.653526,-151.74022
32275000,-29.396454,-101.19601,-0.00017312205,-5.4940882,-0.0016381681,-3.9785614,-86.723686,147.72588
32584375,-29.483109,-98.864418,0.012794678,-5.6776977,0.017714927,-4.1000457,-97.667908,-163.71608
32893750,-29.66297,-98.703949,0.028476855,-5.7225585,0.010978738,-4.1318169,-83.447502,-175.67888
33203125,-29.350191,-97.856476,0.017261924,-5.7067771,0.0044298531,-4.1007266,-113.68295,120.82267
33512500,-29.454773,-99.616592,0.029006813,-5.9532847,0.0061899689,-4.1962132,-86.762589,135.39384
33821875,-28.932968,-100.15405,0.0191688,-6.0035181,-0.00040317047,-4.2095847,-83.403557,140.45245
34131250,-29.062346,-100.01116,0.012095002,-5.8891592,0.0024523702,-4.3744249,-89.411568,162.11317
34440625,-29.027756,-98.71904,0.020090424,-6.0874834,0.0015211081,-4.4255209,-88.697792,-159.55795
34750000,-29.134876,-99.438591,0.016405011,-6.1457281,0.012346572,-4.3440819,-91.647484,156.43221
35059375,-29.018744,-99.317619,0.01533973,-6.1712599,0.016881129,-4.4337521,-85.258507,143.39204
35368750,-28.9925,-99.168327,0.024664497,-6.3502884,0.0021198406,-4.4118838,-84.649361,157.10342
35678125,-28.990492,-100.46214,0.012445788,-6.3775964,0.012375131,-4.4381113,-85.830635,160.81282
35987500,-28.890709,-100.19417,0.016649108,-6.4888835,0.00079210859,-4.4666162,-83.564537,128.12088
36296875,-28.781189,-99.601326,0.02022261,-6.5739141,0.012550187,-4.7004147,-87.978874,-148.34703
36606250,-28.548483,-99.915482,0.00590597,-6.6092095,0.016377982,-4.6255269,-89.350861,166.68513
36915625,-28.534569,-100.33981,0.025156049,-6.7736363,0.0047322037,-4.639668,-89.189148,178.1348
37225000,-28.790524,-99.257553,0.018707583,-6.7421618,-0.0045372872,-4.6645241,-86.109261,-161.40463
37534375,-28.438152,-98.929901,0.013793196,-6.8330836,0.0040964046,-4.6941795,-86.18148,-166.48872
37843750,-28.303204,-99.016273,-0.0046391427,-6.9117627,0.0051510301,-4.774745,-88.57486,146.91531
38153125,-28.296211,-99.164742,0.012241328,-6.9704494,0.0023611626,-4.854135,-90.967094,178.55769
38462500,-28.208218,-99.251381,0.014579041,-7.0763474,0.00023015718,-4.9420471,-89.111465,173.02568
38771875,-28.296747,-98.925209,0.015952542,-7.2121439,0.002238024,-4.9197803,-89.170418,150.03792
39081250,-28.088747,-99.099617,0.00021660683,-7.3168139,0.0093015991,-4.8545656,-85.971016,175.52873
39390625,-28.254946,-100.35735,-0.00091644272,-7.4056454,0.0070617748,-4.9988413,-84.544014,149.52762
39700000,-28.230743,-99.894333,-0.0043643937,-7.3593411,0.0032892122,-5.0305343,-84.058487,173.04111
40009375,-28.019484,-99.776443,0.0032786746,-7.5038314,0.0051650526,-5.0555034,-85.297256,-168.10997
40318750,-27.699089,-98.517616,-0.0088267792,-7.5909014,-0.0013173718,-5.0908008,-84.197121,148.99968
40628125,-27.928055,-99.466461,-0.0033550612,-7.6037688,0.0038124498,-5.1689439,-86.701477,160.76839
40937500,-27.841225,-99.693642,-0.0042641344,-7.6497812,-0.00053100218,-5.2304816,-86.514969,159.72722
41246875,-27.823423,-99.493706,0.001062374,-7.7247033,0.0018506692,-5.1982665,-84.416054,149.2536
41556250,-27.625395,-99.357582,-0.01976431,-7.8198237,0.0078601213,-5.281776,-82.04586,163.66974
41865625,-27.674368,-99.582611,-0.02093325,-7.9394197,-0.0048871222,-5.3401194,-81.442863,168.9926
42175000,-27.633604,-99.771904,-0.012611225,-8.0284967,0.0016179442,-5.3728905,-82.131012,172.60617
42484375,-27.472605,-99.040657,-0.027367262,-8.0134277,0.0010173522,-5.3777328,-83.553337,164.77934
42793750,-27.415955,-99.279655,-0.026190778,-8.1648731,0.0015583019,-5.4297056,-83.742455,165.83151
43103125,-27.338928,-99.689407,-0.028186118,-8.1456938,-0.003321555,-5.4303756,-84.642006,174.60507
43412500,-27.307888,-98.999413,-0.024814339,-8.1801958,0.0041071903,-5.4833646,-81.775772,177.33961
43721875,-27.20116,-98.507271,-0.038517687,-8.3013391,-0.001130883,-5.5339584,-84.644836,176.35254
44031250,-27.411968,-97.870888,-0.036990669,-8.3586998,-0.0092481328,-5.6000896,-82.545418,168.4142
44340625,-27.231148,-99.060356,-0.044050708,-8.4552813,-0.0033172311,-5.6472912,-86.609688,156.48793
44650000,-27.066002,-99.814346,-0.040915523,-8.4250708,-0.0078702327,-5.6876836,-84.780334,178.50699
44959375,-27.144289,-99.006134,-0.038883645,-8.6534967,-0.0065758275,-5.7396855,-81.989937,164.91866
45268750,-27.331421,-99.263908,-0.03978942,-8.8581429,0.0071341679,-5.9049654,-75.422386,156.00227
45578125,-26.852772,-100.17127,-0.028784301,-8.5865211,-0.0031408109,-5.7553763,-89.165367,155.65036
45887500,-26.579262,-97.954018,-0.022068594,-8.7399693,-0.010268697,-5.7014966,-78.412521,179.48103
46196875,-26.85676,-101.3545,-0.048751418,-8.7973604,-0.0053184079,-5.9006252,-84.192596,-171.75299
46506250,-26.954458,-98.06633,-0.057348441,-9.0880356,0.019602856,-5.877677,-79.714729,-179.6519
46815625,-26.775095,-100.01049,-0.038281288,-8.9313164,-0.012031659,-5.8820872,-86.169502,-161.63307
47125000,-26.915609,-97.459892,-0.12702958,-9.0873737,-0.015606412,-5.9069214,-82.323738,172.01779
47434375,-26.336088,-93.011276,-0.070630178,-8.9897823,0.011973041,-6.0469408,-76.208435,-177.39575
47743750,-26.707218,-97.596939,-0.061803021,-9.2544117,0.020264931,-5.947928,-78.503212,178.68944
48053125,-26.428648,-98.134079,-0.037640683,-9.0877895,-0.031939279,-6.1070652,-81.396965,173.72884
48362500,-26.547808,-97.622993,-0.056428231,-9.3257647,-0.028469378,-6.1604915,-76.699036,-133.3049
48671875,-26.09321,-98.311371,-0.077134758,-9.5715036,-0.0044401768,-6.1568675,-75.953583,166.64432
48981250,-25.763134,-95.112732,-0.09835197,-9.420063,-0.010135961,-6.1034279,-82.251984,-136.55144
49290625,-26.390476,-96.871689,-0.09160921,-9.4577456,-0.011694409,-6.3141589,-80.734673,159.85425
49600000,-26.054062,-98.64843,-0.11001691,-9.569128,-0.012172294,-6.0582643,-84.344032,147.99724
49909375,-26.243773,-97.748085,-0.096233144,-9.4563541,-0.019258495,-6.1782308,-87.818733,-154.84081
50218750,-26.226856,-98.674713,-0.078673072,-9.6218843,-0.023010967,-6.3981781,-77.759613,-171.1779
50528125,-26.023155,-97.482468,-0.062753908,-9.513257,0.01943397,-6.6225252,-78.975555,173.71252
50837500,-25.731749,-98.133598,-0.10922327,-9.5770645,-0.016863206,-6.4222269,-80.592545,179.1272
51146875,-25.767845,-96.232399,-0.14622045,-9.7250767,-0.01242764,-6.3873196,-76.249245,179.97171
51456250,-25.838972,-97.495354,-0.1015793,-9.9875031,-0.022899317,-6.581543,-78.190552,-174.46434
51765625,-25.836113,-99.482582,-0.10243507,-9.9093361,-0.012133868,-6.6514506,-82.923401,-148.3262
52075000,-25.681982,-97.093102,-0.12055941,-10.082006,-0.033376575,-6.4710293,-79.863266,-174.93417
52384375,-26.066187,-99.073013,-0.11097392,-9.9476385,-0.040204171,-6.7380562,-76.238106,-172.99312
52693750,-25.384106,-97.060333,-0.089942999,-10.306234,-0.034838699,-6.7231278,-78.650223,-170.81311
53003125,-25.73797,-97.516228,-0.13152011,-10.111398,-0.029084818,-6.7456541,-81.793625,148.55217
53312500,-25.463844,-97.052582,-0.098521836,-10.324653,-0.024365388,-6.6675301,-81.344368,-147.57895
53621875,-25.572241,-97.606056,-0.13456452,-10.131389,-0.02645104,-6.7380948,-85.380447,172.03505
53931250,-25.424738,-94.359543,-0.14113529,-10.139356,-0.036048904,-6.8128099,-83.737549,149.72949
54240625,-25.194481,-97.925476,-0.12787515,-10.30758,-0.020065885,-6.9887071,-77.129402,-177.66675
54550000,-25.217869,-96.177666,-0.13067307,-10.331664,-0.025629137,-6.9322395,-76.636444,-179.38878
54859375,-25.448679,-97.537788,-0.14893956,-10.339927,-0.026453789,-6.8913789,-76.893021,176.56975
55168750,-25.13522,-97.105164,-0.12641481,-10.42633,-0.04873348,-6.9041643,-77.91433,-178.75424
55478125,-25.011671,-96.963799,-0.15484525,-10.550815,-0.055461448,-6.8894525,-75.827705,-177.40143
55787500,-24.876406,-97.409424,-0.1714105,-10.496551,-0.03749422,-7.1695781,-77.069244,156.32164
56096875,-24.951775,-97.398872,-0.14757469,-10.31888,-0.044150919,-7.0556588,-81.614738,177.04739
56406250,-24.985327,-97.452377,-0.16550836,-10.403479,-0.032945029,-7.1608381,-75.8592,145.05035
56715625,-24.835928,-95.893631,-0.16768515,-10.750403,-0.032828327,-7.2961817,-82.620636,173.67413
57025000,-24.815161,-97.31147,-0.15360908,-10.594294,-0.033341605,-7.1928577,-74.706963,-175.78665
57334375,-24.779829,-99.976189,-0.1657241,-10.746235,-0.053443115,-7.3316379,-80.61422,174.55347
57643750,-24.603691,-96.565132,-0.1828068,-10.565149,-0.0070466837,-7.2849784,-76.980583,150.31505
57953125,-24.838833,-99.06517,-0.17207856,-10.666272,-0.020843867,-7.2631755,-75.215599,160.88402
58262500,-24.258934,-99.450394,-0.19407415,-10.771951,-0.029769896,-7.3376875,-76.136238,160.74916
58571875,-24.541,-97.44368,-0.1819136,-10.76937,-0.036013599,-7.416502,-78.381516,177.84506
58881250,-24.391262,-100.60696,-0.1720569,-10.955969,-0.055862572,-7.3400354,-76.75106,150.90918
59190625,-24.201599,-99.739517,-0.1551028,-10.999657,-0.016450481,-7.5448842,-77.325638,174.6619
59500000,-24.297834,-98.156998,-0.15763889,-10.84272,-0.0308016,-7.6424456,-75.58342,158.53169
59809375,-24.256311,-98.731346,-0.16391048,-11.051264,-0.057351194,-7.5510926,-77.433235,156.90141
60118750,-23.942253,-99.043594,-0.16214381,-10.95356,-0.03292026,-7.5553136,-74.522758,167.15872
60428125,-24.066826,-99.162025,-0.17131907,-11.137259,-0.010863901,-7.6859059,-77.290276,156.81593
60737500,-23.862387,-98.226509,-0.15916684,-11.141373,-0.046016186,-7.7014108,-73.962479,172.29242
61046875,-23.900408,-99.638062,-0.19078867,-11.330072,-0.036210548,-7.7232237,-78.557877,160.1223
61356250,-24.149517,-98.584518,-0.16651316,-11.199455,-0.044999432,-7.7413969,-74.352577,176.18181
61665625,-24.00235,-98.394302,-0.17644837,-11.234896,-0.025883138,-7.580204,-76.181953,147.71452
61975000,-23.953617,-98.671104,-0.19230141,-11.400015,-0.040469069,-7.7959266,-75.233513,169.42555
62284375,-23.892664,-98.408203,-0.1965289,-11.35803,-0.048689932,-7.7356224,-76.78997,145.27313
62593750,-23.548649,-98.485413,-0.17055793,-11.234715,-0.033612438,-7.8179269,-78.36866,140.27954
62903125,-23.537628,-99.573608,-0.17144524,-11.39391,-0.02468116,-7.8785872,-75.114868,164.23376
63212500,-23.462351,-99.34626,-0.21115384,-11.447654,-0.052245937,-8.0074711,-77.119957,153.50861
63521875,-23.542355,-98.350243,-0.17054811,-11.393657,-0.042366486,-8.0438242,-75.796982,165.39191
63831250,-23.614271,-100.43703,-0.17930371,-11.611235,-0.046663903,-7.9415703,-75.846924,160.5535
64140625,-23.708,-97.823639,-0.20169339,-11.653,-0.042365637,-8.0347109,-74.542778,165.75345
64450000,-23.47134,-100.07533,-0.18021911,-11.576459,-0.030080264,-8.078042,-74.361366,175.47156
64759375,-23.603222,-98.967369,-0.16185834,-11.720313,-0.042635296,-8.1730108,-77.950623,157.07071
65068750,-23.272934,-99.216316,-0.18842864,-11.66516,-0.022375405,-8.2475462,-73.654358,150.32585
65378125,-23.155378,-99.110893,-0.20144959,-11.684929,-0.040599521,-8.1353378,-76.354126,-173.12256
65687500,-23.488764,-99.724495,-0.19093509,-11.818882,-0.048617184,-8.2087336,-76.188629,160.5
65996875,-23.234379,-100.07343,-0.20952627,-11.77318,-0.037244268,-8.2419386,-79.266052,141.91232
66306250,-23.157965,-100.19291,-0.20219931,-11.842451,-0.02156027,-8.3754444,-76.29818,170.47963
66615625,-23.123455,-101.07045,-0.18311815,-11.756135,-0.035807673,-8.365591,-78.852135,172.10133
66925000,-22.8291,-99.365173,-0.17530257,-11.848131,-0.041963637,-8.3250065,-75.322792,162.20831
67234375,-23.139303,-101.53491,-0.17941977,-11.960494,-0.027338097,-8.3713493,-74.891792,140.4901
67543750,-23.23786,-100.58238,-0.1740389,-12.020368,-0.044857834,-8.4357367,-75.92041,151.15309
67853125,-23.165318,-100.29502,-0.18575354,-12.156816,-0.043786116,-8.5217829,-75.510773,173.67444
68162500,-22.921051,-102.16344,-0.1905466,-12.195355,-0.049955312,-8.4234238,-73.750237,163.99992
68471875,-23.034836,-101.34921,-0.18697613,-12.259906,-0.045051571,-8.5177746,-76.720993,170.57957
68781250,-23.032139,-100.13737,-0.17543311,-12.192696,-0.032344632,-8.5293026,-72.797943,162.67857
69090625,-22.837196,-101.65772,-0.2174283,-12.312812,-0.034766708,-8.6374226,-75.212418,164.26289
69400000,-22.846846,-101.13652,-0.16100541,-12.425467,-0.041023314,-8.5445805,-75.693443,173.04189
69709375,-22.697744,-102.56971,-0.19372882,-12.470025,-0.04765762,-8.5396624,-74.589355,158.60341
70018750,-22.732805,-100.53054,-0.19110468,-12.332755,-0.063602112,-8.6071005,-76.685806,169.27948
70328125,-22.735035,-101.56691,-0.19395189,-12.392083,-0.058319036,-8.6110973,-73.729805,172.36345
70637500,-22.523281,-101.52051,-0.18103363,-12.472171,-0.05900706,-8.6830416,-73.804604,175.20435
70946875,-22.569511,-101.28706,-0.20422377,-12.521572,-0.063503705,-8.8883486,-75.661949,156.63911
71256250,-22.574368,-101.53931,-0.21088013,-12.527576,-0.043423489,-8.8982735,-78.675812,163.71429
